! Created Mon Apr 12 10:28:53 2010
# hz S ma R 50
! 4 Port Network Data from data block
! freq  magS11  angS11  magS12  angS12  magS13  angS13  magS14  angS14  
!       magS21  angS21  magS22  angS22  magS23  angS23  magS24  angS24  
!       magS31  angS31  magS32  angS32  magS33  angS33  magS34  angS34  
!       magS41  angS41  magS42  angS42  magS43  angS43  magS44  angS44  
!     
                 0          0.018663    -3.30426231e-08          0.0020298     8.40298581e-08            0.98133    -9.67161493e-10          0.0020298                180
                        0.0020298     8.40298581e-08           0.018486    -3.33373041e-08          0.0020298                180            0.98151    -9.66984124e-10
                          0.98133    -9.67161493e-10          0.0020298                180           0.018663    -3.16519041e-08          0.0020298     8.82667763e-08
                        0.0020298                180            0.98151    -9.66984124e-10          0.0020298     8.82667763e-08           0.018486    -3.19642634e-08

        8.48765432          0.018663    -2.80461659e-07          0.0020298     7.13219263e-07            0.98133    -8.20904955e-09          0.0020298         179.999999
                        0.0020298     7.13219263e-07           0.018486    -2.82948664e-07          0.0020298         179.999999            0.98151    -8.20754409e-09
                          0.98133    -8.20904955e-09          0.0020298         179.999999           0.018663    -2.68660503e-07          0.0020298     7.49180847e-07
                        0.0020298         179.999999            0.98151    -8.20754409e-09          0.0020298     7.49180847e-07           0.018486    -2.71301064e-07

        84.8765432          0.018663    -2.80458589e-06          0.0020298     7.13219263e-06            0.98133    -8.20904955e-08          0.0020298         179.999993
                        0.0020298     7.13219263e-06           0.018486    -2.82948664e-06          0.0020298         179.999993            0.98151    -8.20754409e-08
                          0.98133    -8.20904955e-08          0.0020298         179.999993           0.018663    -2.68660503e-06          0.0020298     7.49180847e-06
                        0.0020298         179.999993            0.98151    -8.20754409e-08          0.0020298     7.49180847e-06           0.018486    -2.71301064e-06

        848.765432          0.018663    -2.80458589e-05          0.0020298     7.13219263e-05            0.98133    -8.20904955e-07          0.0020298         179.999932
                        0.0020298     7.13219263e-05           0.018486    -2.82948664e-05          0.0020298         179.999932            0.98151    -8.20754409e-07
                          0.98133    -8.20904955e-07          0.0020298         179.999932           0.018663    -2.68660503e-05          0.0020298     7.49180847e-05
                        0.0020298         179.999932            0.98151    -8.20754409e-07          0.0020298     7.49180847e-05           0.018486    -2.71301064e-05

        8487.65432          0.018663    -0.000280458589          0.0020298     0.000713219263            0.98133    -8.20904955e-06          0.0020298         179.999318
                        0.0020298     0.000713219263           0.018486    -0.000282948664          0.0020298         179.999318            0.98151    -8.20754409e-06
                          0.98133    -8.20904955e-06          0.0020298         179.999318           0.018663    -0.000268660503          0.0020298     0.000749180847
                        0.0020298         179.999318            0.98151    -8.20754409e-06          0.0020298     0.000749180847           0.018486    -0.000271301064

        84876.5432          0.018663     -0.00280458589      0.00202980002       0.0071321926            0.98133    -8.20904955e-05      0.00202980001         179.993179
                    0.00202980002       0.0071321926           0.018486     -0.00282948664      0.00202980001         179.993181            0.98151    -8.20754409e-05
                          0.98133    -8.20904955e-05      0.00202980001         179.993181           0.018663     -0.00268660502      0.00202980002      0.00749180843
                    0.00202980001         179.993179            0.98151    -8.20754409e-05      0.00202980002      0.00749180843           0.018486     -0.00271301064

        848765.432      0.0186630022      -0.0280458566      0.00202980157       0.0713218895            0.98133    -0.000820904955      0.00202980144         179.931789
                    0.00202980157       0.0713218895       0.0184860023      -0.0282948641      0.00202980144         179.931811            0.98151    -0.000820754409
                          0.98133    -0.000820904955      0.00202980144         179.931811       0.0186630021      -0.0268660483      0.00202980174        0.074918042
                    0.00202980144         179.931789            0.98151    -0.000820754409      0.00202980174        0.074918042       0.0184860021      -0.0271301044

        8487654.32      0.0186622236       -0.280456026      0.00203035715        0.712872624         0.98133001     -0.00820846564      0.00202964382         179.317903
                    0.00203035715        0.712872624       0.0184852254       -0.282946173      0.00202964372         179.318157         0.98151001     -0.00820696028
                       0.98133001     -0.00820846564      0.00202964372         179.318157       0.0186622052       -0.268657579       0.0020303734        0.748821272
                    0.00202964382         179.317903         0.98151001     -0.00820696028       0.0020303734        0.748821272       0.0184852072       -0.271301315

        84876543.2      0.0186301647        -2.79513731      0.00208315941         6.80126471           0.981271      -0.0817859956      0.00201472356         173.211778
                    0.00208315941         6.80126471       0.0184533463         -2.8199832      0.00201481222         173.214656           0.981451      -0.0817709958
                         0.981271      -0.0817859956      0.00201481222         173.214656       0.0186303392        -2.67752742      0.00208558338         7.14232655
                    0.00201472356         173.211778           0.981451      -0.0817709958      0.00208558338         7.14232655       0.0184535447        -2.70388231

         169753086      0.0185354402        -5.53557946      0.00222314417         11.9581712        0.981113913        -0.16182886      0.00197142426         166.618327
                    0.00222314417         11.9581712       0.0183591471        -5.58482668      0.00197148683          166.62324        0.981283913       -0.161806663
                      0.981113913        -0.16182886      0.00197148683          166.62324       0.0185353166        -5.30242741      0.00223118212         12.5584994
                    0.00197142426         166.618327        0.981283913       -0.161806663      0.00223118212         12.5584994       0.0183591187         -5.3547181

         254629630      0.0183888691        -8.17517969      0.00240625791         14.9693023        0.980858513       -0.238714969      0.00190447846         160.388512
                    0.00240625791         14.9693023       0.0182134268        -8.24875278      0.00190449883         160.395757        0.981038512       -0.238682851
                      0.980858513       -0.238714969      0.00190449883         160.395757       0.0183874054        -7.82938521      0.00242130305         15.7409134
                    0.00190447846         160.388512        0.981038512       -0.238682851      0.00242130305         15.7409134       0.0182121539        -7.90711077

         339506173      0.0182025278        -10.6836576      0.00259436504         16.2357702        0.980534495       -0.311544045        0.001820265          154.65071
                    0.00259436504         16.2357702       0.0180281768        -10.7804474      0.00182033017         154.661085        0.980714494       -0.311504392
                      0.980534495       -0.311544045      0.00182033017         154.661085       0.0182000902        -10.2257239      0.00261604684         17.1297166
                      0.001820265          154.65071        0.980714494       -0.311504392      0.00261604684         17.1297166       0.0180250707        -10.3283588

         392554012      0.0180716233        -12.1773528      0.00270416388         16.4181656        0.980308798       -0.354826124      0.00176187932         151.352479
                    0.00270416388         16.4181656       0.0178990471        -12.2877441      0.00176191584         151.363873        0.980478797       -0.354782134
                      0.980308798       -0.354826124      0.00176191584         151.363873       0.0180681629         -11.649182      0.00272948487         17.3778423
                    0.00176187932         151.352479        0.980478797       -0.354782134      0.00272948487         17.3778423       0.0178940285        -11.7667739

         445601852      0.0179346933          -13.61117      0.00280461041          16.291257        0.980063453        -0.39638244      0.00170090061         148.290697
                    0.00280461041          16.291257       0.0177620006         -13.736129      0.00170091311         148.302836        0.980243451       -0.396327189
                      0.980063453        -0.39638244      0.00170091311         148.302836       0.0179284467        -13.0133724      0.00283317467         17.3138752
                    0.00170090061         148.290697        0.980243451       -0.396327189      0.00283317467         17.3138752       0.0177562419        -13.1448112

         498649691      0.0177932118        -14.9865921      0.00289462394         15.9562171        0.979818403       -0.436263793        0.001638677         145.470588
                    0.00289462394         15.9562171       0.0176223696        -15.1238885      0.00163874849         145.485463        0.979998401       -0.436207049
                      0.979818403       -0.436263793      0.00163874849         145.485463       0.0177854494        -14.3179914      0.00292616621          17.040582
                      0.001638677         145.470588        0.979998401       -0.436207049      0.00292616621          17.040582       0.0176142515        -14.4635275

         551697531      0.0176507931         -16.303754      0.00297419572         15.4874211        0.979563603       -0.474579038       0.0015762996         142.892093
                    0.00297419572         15.4874211       0.0174808921        -16.4540568      0.00157635188         142.907658        0.979743599       -0.474509392
                      0.979563603       -0.474579038      0.00157635188         142.907658         0.01764092        -15.5646194      0.00300839733         16.6343024
                     0.0015762996         142.892093        0.979743599       -0.474509392      0.00300839733         16.6343024       0.0174697838        -15.7244239

         604745370      0.0175083843        -17.5656432      0.00304376505         14.9381469        0.979309013       -0.511428202      0.00151481519         140.555415
                    0.00304376505         14.9381469       0.0173394537        -17.7285582      0.00151484997         140.571678        0.979489009       -0.511351767
                      0.979309013       -0.511428202      0.00151484997         140.571678       0.0174969279        -16.7563288      0.00308053592         16.1478649
                    0.00151481519         140.555415        0.979489009       -0.511351767      0.00308053592         16.1478649       0.0173268822        -16.9295074

         657793210      0.0173681995        -18.7753472      0.00310429508         14.3455687        0.979054607       -0.546938878      0.00145491368           138.4545
                    0.00310429508         14.3455687       0.0172002612        -18.9504829      0.00145493931         138.471177        0.979234602       -0.546855896
                      0.979054607       -0.546938878      0.00145493931         138.471177       0.0173547452        -17.8965453      0.00314337982         15.6193582
                    0.00145491368           138.4545        0.979234602       -0.546855896      0.00314337982         15.6193582       0.0171857865        -18.0823976

         710841049      0.0172315626        -19.9354666      0.00315657187          13.735563        0.978800364       -0.581238792      0.00139707243         136.577476
                    0.00315657187          13.735563       0.0170646315        -20.1224331      0.00139715683         136.597686        0.978980358       -0.581149481
                      0.978800364       -0.581238792      0.00139715683         136.597686       0.0172167779        -18.9875598      0.00319774914         15.0751692
                    0.00139707243         136.577476        0.978980358       -0.581149481      0.00319774914         15.0751692       0.0170489558        -19.1860049

         763888889      0.0171000406        -21.0491542      0.00320154229         13.1256568         0.97855627       -0.614449525       0.0013418707         134.922406
                    0.00320154229         13.1256568       0.0169341262        -21.2475623      0.00134195497         134.943544         0.97873626       -0.614336523
                       0.97855627       -0.614449525      0.00134195497         134.943544       0.0170828372        -20.0354308       0.0032447023         14.5317645
                     0.0013418707         134.922406         0.97873626       -0.614336523       0.0032447023         14.5317645       0.0169161348        -20.2458022

         869984568      0.0168515048        -23.1551959       0.0032729109         11.9485248        0.978078494       -0.678078634      0.00124014407         132.223684
                     0.0032729109         11.9485248       0.0166886406        -23.3747199      0.00124023992         132.247119        0.978258482        -0.67795387
                      0.978078494       -0.678078634      0.00124023992         132.247119       0.0168319101        -22.0115854      0.00331987263         13.4884835
                    0.00124014407         132.223684        0.978258482        -0.67795387      0.00331987263         13.4884835       0.0166675105        -22.2450611

         976080247      0.0166283289        -25.1170188        0.003324381         10.8639283        0.977621226       -0.738590153      0.00115096588         130.266526
                      0.003324381         10.8639283        0.016467602        -25.3575123      0.00115108665         130.292098        0.977801224       -0.738512784
                      0.977621226       -0.738590153      0.00115108665         130.292098       0.0166052253        -23.8522013      0.00337489565         12.5389355
                    0.00115096588         130.266526        0.977801224       -0.738512784      0.00337489565         12.5389355       0.0164422854        -24.1092157

    1.08217593e+09      0.0164305699        -26.9596075      0.00336053016         9.88904591        0.977194462        -0.79667136      0.00107451578         128.949609
                    0.00336053016         9.88904591       0.0162720358        -27.2201375      0.00107465284         128.977299        0.977374459       -0.796583261
                      0.977194462        -0.79667136      0.00107465284         128.977299       0.0164020449        -25.5829974      0.00341462304         11.6980779
                    0.00107451578         128.949609        0.977374459       -0.796583261      0.00341462304         11.6980779       0.0162423319         -25.858912

     1.1882716e+09      0.0162577374        -28.7030234      0.00338510668         9.02489462        0.976788209       -0.852850283      0.00101033033         128.165604
                    0.00338510668         9.02489462       0.0161013586        -28.9821262      0.00101048219         128.194901        0.976968204       -0.852751797
                      0.976788209       -0.852850283      0.00101048219         128.194901       0.0162235976        -27.2195663      0.00344266496         10.9662383
                    0.00101033033         128.165604        0.976968204       -0.852751797      0.00344266496         10.9662383       0.0160653216        -27.5163255

    1.40046296e+09      0.0159818609         -31.948457      0.00340919892         7.60647112        0.976047236       -0.960818229      0.00091508313         127.754775
                    0.00340919892         7.60647112       0.0158307479        -32.2601991     0.000915265478         127.787906        0.976227244       -0.960758444
                      0.976047236       -0.960818229     0.000915265478         127.787906       0.0159309194         -30.269226      0.00347353819         9.80503525
                    0.00091508313         127.754775        0.976227244       -0.960758444      0.00347353819         9.80503525       0.0157773956        -30.6019079

    1.61265432e+09      0.0157875234        -34.9390983      0.00341135731         6.54857486        0.975378382        -1.06464444     0.000856302529         128.193642
                    0.00341135731         6.54857486       0.0156399373        -35.2831376     0.000856531066         128.229287        0.975558406        -1.06462417
                      0.975378382        -1.06464444     0.000856531066         128.229287       0.0157131036        -33.0810386      0.00348209287         8.99184799
                   0.000856302529         128.193642        0.975558406        -1.06462417      0.00348209287         8.99184799       0.0155643631        -33.4459491

    1.82484568e+09      0.0156592022        -37.7294835      0.00339995795         5.79208698        0.974761685        -1.16555574     0.000824453739         128.816423
                    0.00339995795         5.79208698       0.0155167033        -38.0978293     0.000824716181          128.85348        0.974941709        -1.16551683
                      0.974761685        -1.16555574     0.000824716181          128.85348       0.0155577172        -35.7010469      0.00347688832         8.46623058
                   0.000824453739         128.816423        0.974941709        -1.16551683      0.00347688832         8.46623058       0.0154136527        -36.0941666

    2.03703704e+09      0.0155880224        -40.3425518      0.00338048427         5.28744968        0.974207141        -1.26422335     0.000811122609         129.220671
                    0.00338048427         5.28744968       0.0154492851        -40.7320286     0.000811432437         129.257511        0.974387163        -1.26416619
                      0.974207141        -1.26422335     0.000811432437         129.257511       0.0154567832         -38.150939       0.0034632307         8.17949298
                   0.000811122609         129.220671        0.974387163        -1.26416619       0.0034632307         8.17949298       0.0153166973        -38.5718853

    2.29166667e+09      0.0155634758        -43.2660301      0.00335134387         4.95883279        0.973582501        -1.38029453     0.000810567961         129.196105
                    0.00335134387         4.95883279       0.0154296018         -43.684385     0.000810928945          129.23184        0.973762545         -1.3802747
                      0.973582501        -1.38029453     0.000810928945          129.23184       0.0153957554         -40.893947      0.00344029991         8.09743471
                   0.000810567961         129.196105        0.973762545         -1.3802747      0.00344029991         8.09743471       0.0152614654        -41.3420277

