! Created Wed Apr 14 09:16:07 2010
# hz S ma R 50
! 2 Port Network Data from data block
! freq  magS11  angS11  magS21  angS21  magS12  angS12  magS22  angS22  
!     
                 0          0.025112    -3.54676208e-08            0.97488    -1.62246357e-09            0.97488    -1.62246357e-09           0.025112    -3.54676208e-08
        4.24382716          0.025112    -1.50515502e-07            0.97488    -6.88515568e-09            0.97488    -6.88515568e-09           0.025112    -1.50515502e-07
        42.4382716          0.025112    -1.50515502e-06            0.97488    -6.88515568e-08            0.97488    -6.88515568e-08           0.025112    -1.50515502e-06
        424.382716          0.025112    -1.50515502e-05            0.97488    -6.88515568e-07            0.97488    -6.88515568e-07           0.025112    -1.50515502e-05
        4243.82716          0.025112    -0.000150515502            0.97488    -6.88515568e-06            0.97488    -6.88515568e-06           0.025112    -0.000150515502
        42438.2716          0.025112     -0.00150515502            0.97488    -6.88515568e-05            0.97488    -6.88515568e-05           0.025112     -0.00150515502
        424382.716      0.0251120009      -0.0150515498            0.97488    -0.000688515568            0.97488    -0.000688515568       0.0251120009      -0.0150515498
        4243827.16      0.0251120866       -0.150512874        0.974880007     -0.00688515565        0.974880007     -0.00688515565       0.0251120866       -0.150512874
        42438271.6      0.0251076575        -1.50467549        0.974870703      -0.0688287209        0.974870703      -0.0688287209       0.0251076575        -1.50467549
        84876543.2      0.0250945409        -3.00652339        0.974822807        -0.13750561        0.974822807        -0.13750561       0.0250945409        -3.00652339
         127314815      0.0250733924        -4.50289803        0.974756293        -0.20588185        0.974756293        -0.20588185       0.0250733924        -4.50289803
         169753086      0.0250427896         -5.9912942         0.97466113       -0.273817247         0.97466113       -0.273817247       0.0250427896         -5.9912942
         212191358        0.02500615        -7.46866913        0.974537277        -0.34117666        0.974537277        -0.34117666         0.02500615        -7.46866913
         254629630       0.024960776        -8.93324644        0.974394686        -0.40784413        0.974394686        -0.40784413        0.024960776        -8.93324644
         297067901      0.0249098379        -10.3822214        0.974223299       -0.473722301        0.974223299       -0.473722301       0.0249098379        -10.3822214
         339506173      0.0248524661        -11.8142937        0.974033053       -0.538711164        0.974033053       -0.538711164       0.0248524661        -11.8142937
         424382716      0.0247225035        -14.6201525        0.973605729        -0.66577437        0.973605729        -0.66577437       0.0247225035        -14.6201525
         509259259      0.0245779199        -17.3394226        0.973112169        -0.78859008        0.973112169        -0.78859008       0.0245779199        -17.3394226
         594135802      0.0244248052        -19.9643677        0.972571884       -0.907100015        0.972571884       -0.907100015       0.0244248052        -19.9643677
         679012346      0.0242689458         -22.491252        0.972004395        -1.02123473        0.972004395        -1.02123473       0.0242689458         -22.491252
         763888889      0.0241147776        -24.9178528        0.971419347        -1.13127988        0.971419347        -1.13127988       0.0241147776        -24.9178528
         848765432      0.0239674278        -27.2471497         0.97081642        -1.23747053         0.97081642        -1.23747053       0.0239674278        -27.2471497
         933641975      0.0238301816        -29.4791652         0.97021538        -1.34013242         0.97021538        -1.34013242       0.0238301816        -29.4791652
    1.01851852e+09      0.0237050581        -31.6195364        0.969626048        -1.43959835        0.969626048        -1.43959835       0.0237050581        -31.6195364
    1.10339506e+09      0.0235947286        -33.6725566        0.969028276        -1.53618645        0.969028276        -1.53618645       0.0235938964         -33.673903
     1.1882716e+09      0.0234988012        -35.6414169           0.968452        -1.63025771           0.968452        -1.63025771       0.0234988012        -35.6414169
    1.27314815e+09      0.0234179589        -37.5309998        0.967877105        -1.72201475        0.967877105        -1.72201475       0.0234179589        -37.5309998
    1.35802469e+09      0.0233541722        -39.3441263        0.967323578        -1.81177107        0.967323578        -1.81177107       0.0233541722        -39.3441263
    1.52777778e+09      0.0232737235        -42.7660242        0.966250379        -1.98595875        0.966250379        -1.98595875       0.0232737235        -42.7660242
    1.69753086e+09       0.023252737        -45.9304518        0.965222223        -2.15433291        0.965222223        -2.15433291        0.023252737        -45.9304518
    1.86728395e+09      0.0232878372        -48.8668451        0.964248858        -2.31777896        0.964248858        -2.31777896       0.0232878372        -48.8668451
    2.03703704e+09      0.0233730329        -51.5909518        0.963320159        -2.47711321        0.963320159        -2.47711321       0.0233730329        -51.5909518
    2.19618056e+09      0.0234937098        -53.9676062        0.962488679        -2.62333794        0.962488679        -2.62333794       0.0234937098        -53.9676062
    2.35532407e+09      0.0236496956        -56.1889846        0.961691125         -2.7668718        0.961691125         -2.7668718       0.0236496956        -56.1889846
    2.51446759e+09      0.0238370632        -58.2595948        0.960937484        -2.90808045        0.960937484        -2.90808045       0.0238365372         -58.261639
    2.67361111e+09      0.0240533243        -60.1969141        0.960207692        -3.04724175        0.960207692        -3.04724175       0.0240533243        -60.1969141
    2.83275463e+09      0.0242961979        -62.0036697        0.959521678        -3.18451367        0.959521678        -3.18451367       0.0242957285         -62.005752
    2.99189815e+09      0.0245616683        -63.6936706        0.958859524        -3.32024168        0.958859524        -3.32024168       0.0245616683        -63.6936706
    3.15104167e+09       0.024848761        -65.2707566        0.958231197        -3.45455625        0.958231197        -3.45455625        0.024848761        -65.2707566
    3.31018518e+09       0.025155817        -66.7445566        0.957626727        -3.58765774        0.957626727        -3.58765774        0.025155659        -66.7453937
    3.62847222e+09      0.0258220899        -69.4125312        0.956499466        -3.85079284        0.956499466        -3.85079284       0.0258219493        -69.4133621
    3.94675926e+09      0.0265514136        -71.7510038        0.955467989        -4.11067022        0.955467989        -4.11067022       0.0265512571        -71.7520285
     4.2650463e+09      0.0273344586        -73.8067028        0.954532549        -4.36804468        0.954532549        -4.36804468       0.0273342913        -73.8079106
    4.58333333e+09       0.028165268        -75.6212479        0.953673472        -4.62359212        0.953673472        -4.62359212       0.0281641503        -75.6219251
    4.90162037e+09      0.0290382428        -77.2301044        0.952881177        -4.87790167        0.952881177        -4.87790167       0.0290370907        -77.2312078
    5.21990741e+09      0.0299482509         -78.663991        0.952155875        -5.13128148        0.952155875        -5.13128148       0.0299480937        -78.6654917
    5.53819444e+09      0.0308931033        -79.9492066        0.951477777        -5.38403377        0.951477777        -5.38403377       0.0308929463        -79.9508502
    5.85648148e+09       0.031868051        -81.1074948        0.950857143        -5.63636519        0.950857143        -5.63636519       0.0318678964        -81.1092711
    6.17476852e+09      0.0328714195        -82.1578863        0.950284201        -5.88847589        0.950284201        -5.88847589       0.0328702787        -82.1595479
    6.49305556e+09      0.0338994016        -83.1157767        0.949748924        -6.14039692        0.949748924        -6.14039692        0.033898277          -83.11742
    6.81134259e+09      0.0349508055        -83.9946494        0.949241075        -6.39205011        0.949241075        -6.39205011       0.0349496855        -83.9964343
    7.12962963e+09      0.0360219462        -84.8053695         0.94877258        -6.64442796         0.94877258        -6.64442796       0.0360218285        -84.8074288
     7.7662037e+09      0.0382214095        -86.2597644        0.947919418        -7.14908211        0.947919418        -7.14908211       0.0382213117        -86.2620081
    8.40277778e+09      0.0404853613        -87.5383129        0.947149835        -7.65452562        0.947149835        -7.65452562       0.0404842849        -87.5407973
    9.03935185e+09      0.0428012946        -88.6837007        0.946465395          -8.161265        0.946465395          -8.161265       0.0428012478        -88.6864309
    9.67592592e+09      0.0451635131        -89.7268883        0.945845207        -8.66878935        0.945845207        -8.66878935       0.0451625021        -89.7298255
       1.03125e+10      0.0475624535        -90.6904579        0.945261434        -9.17792483        0.945261434        -9.17792483        0.047561485        -90.6936043
    1.09490741e+10      0.0499922777        -91.5912103        0.944732675        -9.68785337        0.944732675        -9.68785337       0.0499913587        -91.5945646
    1.15856482e+10      0.0524496111        -92.4414806        0.944229618        -10.1988497        0.944229618        -10.1988497       0.0524477493        -92.4450663
    1.22222222e+10      0.0549283916        -93.2508947        0.943760581        -10.7102049        0.943760581        -10.7102049       0.0549265991        -93.2547623
    1.29861111e+10      0.0579259652        -94.1783861        0.943228433        -11.3258958        0.943228433        -11.3258958       0.0579242621        -94.1824763
         1.375e+10      0.0609451487        -95.0667996        0.942715197        -11.9427478        0.942715197        -11.9427478       0.0609435542        -95.0711798
    1.45138889e+10      0.0639816008        -95.9232896        0.942221321        -12.5607968        0.942221321        -12.5607968       0.0639791227        -95.9279316
    1.52777778e+10      0.0670290857        -96.7534221        0.941744998        -13.1794857        0.941744998        -13.1794857       0.0670267418        -96.7583077
    1.60416667e+10      0.0700874108        -97.5611502        0.941276703         -13.798998        0.941276703         -13.798998       0.0700842222        -97.5663619
    1.68055556e+10      0.0731514423        -98.3499776        0.940816725        -14.4193913        0.940816725        -14.4193913       0.0731483563        -98.3550825
    1.75694444e+10      0.0762200013        -99.1222244        0.940362793        -15.0401345        0.940362793        -15.0401345        0.076217162        -99.1278968
    1.83333333e+10      0.0792910869        -99.8806024         0.93991765         -15.661876         0.93991765         -15.661876       0.0792885195        -99.8867936
    1.90972222e+10      0.0823624784        -100.626407        0.939466479        -16.2836727        0.939466479        -16.2836727       0.0823600227         -100.63239
    1.98611111e+10      0.0854341062        -101.361227        0.939012082        -16.9061941        0.939012082        -16.9061941       0.0854298002         -101.36728
        2.0625e+10      0.0885027832        -102.086211         0.93856123        -17.5287548         0.93856123        -17.5287548       0.0884988013        -102.092722
    2.13888889e+10      0.0915672801        -102.802186        0.938104301        -18.1516118        0.938104301        -18.1516118       0.0915636458         -102.80912
    2.21527778e+10      0.0946285345        -103.510217         0.93765078        -18.7746546         0.93765078        -18.7746546       0.0946242989        -103.517683
    2.29166667e+10      0.0976833763        -104.211221         0.93717844          -19.39778         0.93717844          -19.39778       0.0976783224        -104.218628
    2.36805556e+10       0.100731806        -104.906209        0.936718796        -20.0210459        0.936718796        -20.0210459        0.100726905        -104.913426
    2.44444444e+10       0.103773045        -105.594481        0.936240174        -20.6445756        0.936240174        -20.6445756        0.103767603        -105.602198
    2.52083333e+10       0.106801565        -106.278402        0.935761212        -21.2680374        0.935761212        -21.2680374        0.106795611          -106.2866
    2.59722222e+10       0.109824803         -106.95709        0.935277996        -21.8909373        0.935277996        -21.8909373        0.109819031        -106.965099
    2.67361111e+10       0.112840236        -107.630638        0.934788497        -22.5147242        0.934788497        -22.5147242        0.112834948        -107.638951
          2.75e+10       0.115848784        -108.299664        0.934290444        -23.1375531        0.934290444        -23.1375531        0.115843687        -108.307792
    2.82638889e+10       0.118841273        -108.965364        0.933782081        -23.7608843        0.933782081        -23.7608843        0.118836692         -108.97377
    2.90277778e+10       0.121827784        -109.626301        0.933273478        -24.3831877        0.933273478        -24.3831877         0.12182374        -109.634968
    2.97916667e+10       0.124800148        -110.285012        0.932754258         -25.006169        0.932754258         -25.006169        0.124786937        -110.295086
    3.05555556e+10       0.127757966        -110.940272        0.932234004        -25.6282841        0.932234004        -25.6282841        0.127754704        -110.948995
    3.13194444e+10       0.130702528        -111.593018        0.931707547        -26.2504313        0.931707547        -26.2504313        0.130699856        -111.601968
    3.20833333e+10       0.133643302        -112.241268        0.931161299        -26.8724258        0.931161299        -26.8724258        0.133631606        -112.251657
    3.28472222e+10       0.136562268        -112.888318        0.930621628         -27.493528        0.930621628         -27.493528        0.136551235        -112.898927
    3.36111111e+10       0.139469634         -113.53298        0.930074961        -28.1149208        0.930074961        -28.1149208        0.139458487        -113.543041
        3.4375e+10       0.142364688        -114.174162        0.929516473        -28.7361515        0.929516473        -28.7361515        0.142354635        -114.184802
    3.51388889e+10       0.145240011        -114.814678        0.928949721        -29.3564768        0.928949721        -29.3564768        0.145230254        -114.825152
    3.59027778e+10       0.148103953        -115.451835        0.928384044        -29.9770544        0.928384044        -29.9770544        0.148094921        -115.462497
    3.66666667e+10       0.150948764         -116.08805        0.927817823         -30.596578        0.927817823         -30.596578        0.150940039        -116.098548
    3.74305556e+10       0.153783464        -116.721341        0.927238402         -31.216289        0.927238402         -31.216289        0.153766114        -116.733357
    3.81944444e+10        0.15659905        -117.353092        0.926648923        -31.8354354        0.926648923        -31.8354354        0.156582516        -117.365286
    3.89583333e+10       0.159396427         -117.98368        0.926057346        -32.4537772        0.926057346        -32.4537772        0.159380261        -117.995725
    3.97222222e+10       0.162175086        -118.612518         0.92546014        -33.0722463         0.92546014        -33.0722463        0.162159768        -118.624728
    4.04861111e+10       0.164936375        -119.240279        0.924859958        -33.6900675        0.924859958        -33.6900675        0.164921436        -119.252343
         4.125e+10       0.167688382         -119.86469        0.924256271         -34.307318        0.924256271         -34.307318        0.167665151        -119.878313
    4.20138889e+10       0.170414042        -120.489206         0.92364612        -34.9249394         0.92364612        -34.9249394        0.170391248        -120.502695
    4.27777778e+10         0.1731224         -121.11218        0.923034153        -35.5412857        0.923034153        -35.5412857         0.17310056        -121.125822
    4.35416667e+10        0.17581323        -121.733381        0.922409267        -36.1576646        0.922409267        -36.1576646        0.175791837        -121.746891
    4.43055556e+10       0.178487321        -122.353139        0.921787307        -36.7734295        0.921787307        -36.7734295        0.178466378         -122.36652
    4.50694444e+10       0.181135461        -122.972682        0.921161683        -37.3881508        0.921161683        -37.3881508        0.181115515        -122.986203
    4.58333333e+10       0.183766905        -123.590623        0.920522056        -38.0031622        0.920522056        -38.0031622        0.183744654        -123.602719
    4.65972222e+10       0.186375676        -124.204212        0.919891821        -38.6173971        0.919891821        -38.6173971        0.186359464        -124.218753
    4.73611111e+10       0.188973092        -124.818646         0.91925488        -39.2316948         0.91925488        -39.2316948        0.188949181        -124.834771
        4.8125e+10       0.191546202        -125.433361        0.918612339        -39.8452612        0.918612339        -39.8452612        0.191522862        -125.449345
    4.88888889e+10       0.194095938        -126.048642         0.91796362         -40.458177         0.91796362         -40.458177        0.194075371        -126.060365
    4.96527778e+10       0.196625311        -126.660675        0.917322295        -41.0705846        0.917322295        -41.0705846        0.196605169        -126.672311
    5.04166667e+10       0.199134851        -127.269837        0.916666312        -41.6829031        0.916666312        -41.6829031        0.199113236        -127.285419
    5.11805556e+10       0.201623361        -127.880467        0.916017616        -42.2939691        0.916017616        -42.2939691        0.201596182        -127.893679
    5.19444444e+10       0.204093466         -128.48882        0.915360191        -42.9055727        0.915360191        -42.9055727        0.204058956          -128.5037
    5.27083333e+10       0.206538003        -129.096954        0.914694842        -43.5160312        0.914694842        -43.5160312        0.206504058        -129.111759
    5.34722222e+10       0.208951401        -129.703054        0.914034705         -44.126328        0.914034705         -44.126328        0.208932104        -129.718143
    5.42361111e+10       0.211354824        -130.309903        0.913372448        -44.7360764        0.913372448        -44.7360764        0.211322016        -130.324562
           5.5e+10       0.213736077        -130.913573        0.912707586         -45.345349        0.912707586         -45.345349        0.213703841         -130.92816
