! Created Tue Apr 13 08:48:13 2010
# hz S ma R 50
! 2 Port Network Data from data block
! freq  magS11  angS11  magS21  angS21  magS12  angS12  magS22  angS22  
!     
                 0                 1    -2.41033884e-09     2.69308973e-15        -88.6124081     2.69308973e-15        -88.6124081            0.94249                180
        1.43229167                 1      -3.452314e-09     3.86208034e-15        -89.0067155     3.86208034e-15        -89.0067155            0.94249                180
        14.3229167                 1    -3.45231082e-08     3.85870467e-14        -89.9108929     3.85870467e-14        -89.9108929            0.94249                180
        143.229167                 1    -3.45231072e-07     3.85870005e-13        -89.9908317     3.85870005e-13        -89.9908317            0.94249                180
        1432.29167                 1    -3.45231083e-06         3.8587e-12        -89.9990574         3.8587e-12        -89.9990574            0.94249         179.999999
        14322.9167                 1    -3.45231083e-05         3.8587e-11        -89.9993854         3.8587e-11        -89.9993854            0.94249          179.99999
        143229.167                 1    -0.000345231082     3.85870002e-10        -89.9947668     3.85870002e-10        -89.9947668            0.94249         179.999904
        1432291.67       0.999999982     -0.00345231025      3.8587016e-09        -89.9477646      3.8587016e-09        -89.9477646            0.94249         179.999038
        14322916.7        0.99999821      -0.0345225315     3.85886035e-08        -89.4776751     3.85886035e-08        -89.4776751        0.942490013         179.990381
         143229167       0.999821621       -0.344656098     3.87230456e-07        -84.7889601     3.87230456e-07        -84.7889601        0.942481328         179.903814
         286458333       0.999293362       -0.685905426     7.82550681e-07        -79.6510153     7.82550681e-07        -79.6510153         0.94247531         179.807663
         429687500       0.998435196        -1.02055093     1.19367316e-06        -74.6516333     1.19367316e-06        -74.6516333        0.942451942          179.71156
         572916667       0.997278355        -1.34578841     1.62784541e-06        -69.8488259     1.62784541e-06        -69.8488259        0.942421216         179.615545
         716145834       0.995862595        -1.65934219     2.09129276e-06        -65.2831832     2.09129276e-06        -65.2831832        0.942383119         179.519641
         859375000       0.994233016        -1.95954174     2.58945835e-06        -60.9821459     2.58945835e-06        -60.9821459        0.942337639         179.423875
    1.00260417e+09       0.992436849        -2.24533852     3.12668631e-06        -56.9609986     3.12668631e-06        -56.9609986        0.942274758         179.328263
    1.14583333e+09       0.990515074        -2.51628952     3.70664482e-06        -53.2225388     3.70664482e-06        -53.2225388        0.942214453         179.232863
     1.2890625e+09       0.988527033         -2.7724176     4.33190595e-06         -49.761234     4.33190595e-06         -49.761234        0.942146716         179.137624
    1.43229167e+09       0.986494767        -3.01418255      5.0045079e-06        -46.5658739      5.0045079e-06        -46.5658739        0.942061501         179.042655
    1.57552083e+09       0.984455982        -3.24244779     5.72568651e-06        -43.6214868     5.72568651e-06        -43.6214868        0.941978784         178.947974
       1.71875e+09       0.982448871        -3.45810381      6.4962409e-06         -40.912206      6.4962409e-06         -40.912206        0.941888561         178.853507
    1.86197917e+09       0.980482344        -3.66236012     7.31663364e-06        -38.4188805     7.31663364e-06        -38.4188805        0.941790772         178.759375
    2.00520833e+09       0.978575732        -3.85639075     8.18683248e-06        -36.1246733     8.18683248e-06        -36.1246733        0.941685411         178.665513
     2.1484375e+09       0.976748756        -4.04136603     9.10679666e-06        -34.0132357     9.10679666e-06        -34.0132357        0.941572432          178.57198
    2.29166667e+09       0.975001399        -4.21842283     1.00759219e-05        -32.0682509     1.00759219e-05        -32.0682509        0.941451807         178.478773
    2.43489583e+09       0.973333961        -4.38870964      1.1093585e-05         -30.275955      1.1093585e-05         -30.275955        0.941333505         178.385908
      2.578125e+09       0.971766651        -4.55305697     1.21589977e-05        -28.6235471     1.21589977e-05        -28.6235471        0.941207472         178.293428
    2.72135417e+09       0.970280022        -4.71248421     1.32717699e-05        -27.0971524     1.32717699e-05        -27.0971524        0.941073708         178.201269
    2.86458333e+09       0.968884577        -4.86776397     1.44311313e-05         -25.686821     1.44311313e-05         -25.686821        0.940942182          178.10945
     3.0078125e+09       0.967580845        -5.01960254     1.56356358e-05        -24.3833006     1.56356358e-05        -24.3833006        0.940802803         178.018071
    3.15104167e+09       0.966349227        -5.16858222     1.68856803e-05        -23.1760906     1.68856803e-05        -23.1760906        0.940655607         177.927008
    3.29427084e+09       0.965200202        -5.31519584     1.81787924e-05        -22.0595158     1.81787924e-05        -22.0595158        0.940510523         177.836343
        3.4375e+09       0.964124433        -5.46004643     1.95143185e-05        -21.0260857     1.95143185e-05        -21.0260857         0.94036752         177.746077
    3.72395834e+09       0.962183729        -5.74555189     2.23115357e-05        -19.1803684     2.23115357e-05        -19.1803684        0.940057696         177.566602
    4.01041667e+09       0.960479282        -6.02714709     2.52703209e-05        -17.5957561     2.52703209e-05        -17.5957561        0.939745882         177.388628
      4.296875e+09       0.958985319        -6.30759827     2.83859228e-05        -16.2348529     2.83859228e-05        -16.2348529        0.939431888         177.212092
    4.58333334e+09       0.957683281        -6.58775082     3.16532114e-05        -15.0673722     3.16532114e-05        -15.0673722         0.93911554         177.036931
       5.15625e+09       0.955528951        -7.14926233     3.86241086e-05        -13.2169914     3.86241086e-05        -13.2169914        0.938485132          176.69052
    5.72916667e+09       0.953856789        -7.71614591     4.61582862e-05        -11.8837227     4.61582862e-05        -11.8837227        0.937863698          176.34876
    6.30208334e+09       0.952533113        -8.29002721     5.42385546e-05        -10.9502822     5.42385546e-05        -10.9502822        0.937250436         176.011109
         6.875e+09       0.951468881        -8.87000559     6.28556081e-05        -10.3289797     6.28556081e-05        -10.3289797         0.93667491         175.676978
    7.44791667e+09       0.950619065        -9.45677335      7.2006251e-05        -9.95091543      7.2006251e-05        -9.95091543        0.936116928         175.345691
    8.02083334e+09       0.949924208        -10.0494538     8.16905017e-05        -9.76477007     8.16905017e-05        -9.76477007        0.935596331         175.016819
       8.59375e+09       0.949345916        -10.6476836     9.19110494e-05        -9.72970269     9.19110494e-05        -9.72970269         0.93509321         174.689792
    9.16666667e+09       0.948863326        -11.2503662     0.000102672386         -9.8136962     0.000102672386         -9.8136962        0.934627688         174.364253
       1.03125e+10       0.948118966        -12.4677838     0.000125855818         -10.242954     0.000125855818         -10.242954        0.933778531         173.717133
    1.14583333e+10       0.947591094        -13.6977771     0.000151284339         -10.909959     0.000151284339         -10.909959        0.933013367           173.0715
    1.26041667e+10       0.947187233        -14.9373789      0.00017903477        -11.7235394      0.00017903477        -11.7235394        0.932330531         172.427692
         1.375e+10       0.946884035        -16.1841075     0.000209169649        -12.6278042     0.000209169649        -12.6278042        0.931711802         171.784409
    1.48958333e+10       0.946657795        -17.4362014     0.000241756018        -13.5873158     0.000241756018        -13.5873158        0.931138422         171.140904
    1.60416667e+10       0.946485599        -18.6926137     0.000276865915        -14.5800245     0.000276865915        -14.5800245        0.930610292         170.497191
       1.71875e+10       0.946352465        -19.9522261     0.000314575432         -15.591383     0.000314575432         -15.591383        0.930099553         169.852349
    1.83333333e+10       0.946241753        -21.2140117     0.000354955504        -16.6123538     0.000354955504        -16.6123538        0.929624418         169.207168
    1.94791667e+10       0.946170614        -22.4774664     0.000398077388        -17.6397752     0.000398077388        -17.6397752        0.929157472         168.560669
        2.0625e+10       0.946106606        -23.7413129     0.000444019065         -18.667542     0.000444019065         -18.667542        0.928704871         167.914119
    2.17708333e+10       0.946059444        -25.0058807     0.000492852686        -19.6952703     0.000492852686        -19.6952703        0.928251382         167.265992
    2.29166667e+10        0.94603469        -26.2709056     0.000544664964        -20.7218893     0.000544664964        -20.7218893        0.927814867         166.617086
       2.40625e+10       0.946014603        -27.5347649     0.000599543684        -21.7453318     0.000599543684        -21.7453318        0.927383472         165.967802
    2.52083333e+10       0.946003022        -28.7985879     0.000657573704        -22.7669173     0.000657573704        -22.7669173        0.926940447         165.317158
    2.63541667e+10       0.945998846        -30.0616032     0.000718860379        -23.7858256     0.000718860379        -23.7858256        0.926512688         164.666128
          2.75e+10        0.94599965        -31.3230469     0.000783481738         -24.802977     0.000783481738         -24.802977        0.926071417         164.014151
    2.86458333e+10       0.946009431        -32.5840238      0.00085156285        -25.8166938      0.00085156285        -25.8166938        0.925636179         163.361467
    2.97916667e+10        0.94602791        -33.8429258     0.000923188288        -26.8281732     0.000923188288        -26.8281732        0.925197668         162.707818
       3.09375e+10       0.946039238        -35.1001828     0.000998494245        -27.8379957     0.000998494245        -27.8379957        0.924753189         162.053702
    3.20833333e+10       0.946064024        -36.3562016      0.00107758279        -28.8455491      0.00107758279        -28.8455491        0.924302856         161.399019
    3.32291667e+10       0.946082948        -37.6100954      0.00116059006        -29.8516109      0.00116059006        -29.8516109        0.923850129         160.743086
        3.4375e+10       0.946109648        -38.8617323      0.00124768875        -30.8550749      0.00124768875        -30.8550749        0.923401547         160.086604
    3.55208333e+10        0.94613438        -40.1120734      0.00133889833        -31.8584143      0.00133889833        -31.8584143        0.922947893         159.429278
    3.66666667e+10       0.946165405         -41.359615      0.00143451127        -32.8591051      0.00143451127        -32.8591051        0.922489487         158.771009
       3.78125e+10       0.946185925        -42.6048936      0.00153464571        -33.8581266      0.00153464571        -33.8581266        0.922026695         158.111699
    3.89583333e+10       0.946215225        -43.8481412       0.0016394286        -34.8560227       0.0016394286        -34.8560227        0.921565342         157.452064
    4.01041667e+10       0.946244378        -45.0894851      0.00174899546        -35.8529971      0.00174899546        -35.8529971        0.921100197           156.7912
         4.125e+10       0.946271039        -46.3278002       0.0018636601        -36.8508366       0.0018636601        -36.8508366        0.920640932         156.129263
    4.23958333e+10       0.946299699        -47.5640894      0.00198354596        -37.8428091      0.00198354596        -37.8428091        0.920170579         155.467049
    4.35416667e+10       0.946320078        -48.7976713      0.00210882456        -38.8384459      0.00210882456        -38.8384459        0.919701907         154.802756
       4.46875e+10       0.946337302        -50.0295444      0.00223981341        -39.8324282      0.00223981341        -39.8324282        0.919231826         154.138249
    4.58333333e+10        0.94636086        -51.2584982       0.0023766754        -40.8232942       0.0023766754        -40.8232942        0.918760275         153.472041
    4.69791667e+10       0.946380039        -52.4847105      0.00251963736          -41.81464      0.00251963736          -41.81464        0.918287797         152.805433
        4.8125e+10       0.946392266        -53.7087655      0.00266895121        -42.8059779      0.00266895121        -42.8059779        0.917814954         152.136935
    4.92708333e+10       0.946398893        -54.9299141      0.00282501962         -43.796683      0.00282501962         -43.796683        0.917346651         151.467302
    5.04166667e+10        0.94640547        -56.1490755      0.00298804175        -44.7871265      0.00298804175        -44.7871265        0.916869746          150.79669
       5.15625e+10       0.946407173        -57.3659694      0.00315829934        -45.7761095      0.00315829934        -45.7761095        0.916398279         150.124757
    5.27083333e+10       0.946398598        -58.5803356      0.00333615878        -46.7660138      0.00333615878        -46.7660138        0.915924208         149.451104
    5.38541667e+10       0.946396092         -59.792022      0.00352200087         -47.756076      0.00352200087         -47.756076        0.915456889         148.775953
           5.5e+10       0.946378675        -61.0023179      0.00371614181          -48.74431      0.00371614181          -48.74431        0.914983221         148.099425
    5.61458333e+10       0.946354982        -62.2093983      0.00391900257        -49.7339371      0.00391900257        -49.7339371        0.914517627         147.421221
    5.72916667e+10       0.946330856        -63.4154536      0.00413108163        -50.7241575      0.00413108163        -50.7241575        0.914047038          146.74144
       5.84375e+10       0.946291227        -64.6186021       0.0043526087        -51.7143502       0.0043526087        -51.7143502        0.913572182         146.059975
    5.95833333e+10       0.946247478         -65.820487      0.00458434579        -52.7056618      0.00458434579        -52.7056618        0.913107757         145.376558
    6.07291667e+10       0.946187915        -67.0200673      0.00482655611        -53.6968305      0.00482655611        -53.6968305         0.91264076         144.691263
        6.1875e+10        0.94611966        -68.2181576       0.0050799224         -54.689937       0.0050799224         -54.689937        0.912166218         144.004491
    6.30208333e+10       0.946044886        -69.4147505      0.00534504939        -55.6840973      0.00534504939        -55.6840973        0.911704773         143.315494
    6.41666667e+10       0.945956116        -70.6096226      0.00562241884        -56.6784926      0.00562241884        -56.6784926        0.911237435         142.624817
       6.53125e+10       0.945851753        -71.8033496      0.00591281313        -57.6750691      0.00591281313        -57.6750691        0.910757128         141.931956
    6.64583333e+10       0.945743266        -72.9961084      0.00621693137        -58.6731897      0.00621693137        -58.6731897        0.910293056         141.236584
    6.76041667e+10       0.945613271        -74.1875198      0.00653552886        -59.6731377      0.00653552886        -59.6731377          0.9098197         140.539693
         6.875e+10       0.945470196        -75.3783357      0.00686947625        -60.6751409      0.00686947625        -60.6751409        0.909350665         139.840193
    6.98958333e+10       0.945303807        -76.5689799      0.00721953836        -61.6792489      0.00721953836        -61.6792489        0.908880745         139.138464
    7.10416667e+10       0.945125914        -77.7595914      0.00758673093        -62.6868327      0.00758673093        -62.6868327        0.908404425         138.434868
       7.21875e+10        0.94493056        -78.9494217      0.00797206856        -63.6975461      0.00797206856        -63.6975461        0.907921942         137.728391
    7.33333333e+10       0.944703708        -80.1401423      0.00837677877        -64.7112136      0.00837677877        -64.7112136        0.907442119         137.019339
    7.44791667e+10       0.944459206        -81.3312781      0.00880190995        -65.7286538      0.00880190995        -65.7286538        0.906959373         136.308063
        7.5625e+10       0.944197463        -82.5234105      0.00924874294        -66.7505694      0.00924874294        -66.7505694        0.906474827         135.594445
    7.67708333e+10       0.943899583        -83.7169876      0.00971883302        -67.7768943      0.00971883302        -67.7768943        0.905989676         134.878366
    7.79166667e+10       0.943578029        -84.9119917       0.0102135805        -68.8083132       0.0102135805        -68.8083132        0.905491045         134.159699
       7.90625e+10       0.943223782        -86.1093544       0.0107343519        -69.8446534       0.0107343519        -69.8446534         0.90499442          133.43832
    8.02083333e+10       0.942839381        -87.3094185       0.0112839521        -70.8882376       0.0112839521        -70.8882376        0.904494433         132.713651
    8.13541667e+10       0.942417555        -88.5125658       0.0118635996        -71.9383103       0.0118635996        -71.9383103        0.903984678         131.986883
          8.25e+10       0.941951287        -89.7195088       0.0124754047        -72.9954632       0.0124754047        -72.9954632        0.903481247         131.257037
    8.36458333e+10       0.941444236        -90.9308254       0.0131215328        -74.0598823       0.0131215328        -74.0598823        0.902964083         130.524349
    8.47916667e+10       0.940900612        -92.1471595       0.0138050971        -75.1336817       0.0138050971        -75.1336817        0.902448782         129.788744
       8.59375e+10       0.940295362        -93.3693268       0.0145293362        -76.2175934       0.0145293362        -76.2175934        0.901929129         129.050503
    8.70833333e+10        0.93963429        -94.5981856       0.0152965416        -77.3118511       0.0152965416        -77.3118511        0.901400313          128.30899
    8.82291667e+10       0.938914119        -95.8346454        0.016110064        -78.4173475        0.016110064        -78.4173475        0.900870211         127.564559
        8.9375e+10       0.938132051        -97.0794128       0.0169743081        -79.5357758       0.0169743081        -79.5357758         0.90033439         126.816569
    9.05208333e+10       0.937267486        -98.3339561       0.0178928209        -80.6677068       0.0178928209        -80.6677068        0.899800701         126.065388
