! Created Tue Apr 13 08:48:08 2010
# hz S ma R 50
! 2 Port Network Data from data block
! freq  magS11  angS11  magS21  angS21  magS12  angS12  magS22  angS22  
!     
                 0           0.94249                180     2.08365846e-15        -92.4843691     2.08365846e-15        -92.4843691                  1    -2.40948009e-09
        1.43229167           0.94249                180     2.98851323e-15        -91.6986197     2.98851323e-15        -91.6986197                  1    -3.45108312e-09
        14.3229167           0.94249                180     2.98651473e-14        -90.1799348     2.98651473e-14        -90.1799348                  1    -3.45107326e-08
        143.229167           0.94249                180     2.98650014e-13        -90.0173278     2.98650014e-13        -90.0173278                  1    -3.45107409e-07
        1432.29167           0.94249         179.999999         2.9865e-12        -90.0017661         2.9865e-12        -90.0017661                  1    -3.45107413e-06
        14322.9167           0.94249          179.99999         2.9865e-11        -89.9995409         2.9865e-11        -89.9995409                  1    -3.45107412e-05
        143229.167           0.94249         179.999904     2.98650002e-10        -89.9935602     2.98650002e-10        -89.9935602                  1    -0.000345107412
        1432291.67           0.94249         179.999038      2.9865019e-09        -89.9354332      2.9865019e-09        -89.9354332        0.999999982     -0.00345107355
        14322916.7       0.942490013          179.99038     2.98668964e-08        -89.3543395     2.98668964e-08        -89.3543395        0.999998213      -0.0345101658
         143229167       0.942481328         179.903802     3.00370826e-07        -83.5677549     3.00370826e-07        -83.5677549        0.999821869       -0.344533768
         286458333       0.942465312         179.807637     6.10963069e-07        -77.2805722     6.10963069e-07        -77.2805722        0.999294331       -0.685668628
         429687500       0.942441945         179.711526     9.41382059e-07        -71.2626838     9.41382059e-07        -71.2626838        0.998437297        -1.02021452
         572916667        0.94242122         179.615503     1.30014044e-06        -65.6088927     1.30014044e-06        -65.6088927        0.997281902        -1.34537267
         716145834       0.942373127         179.519581     1.69438024e-06        -60.3757037     1.69438024e-06        -60.3757037        0.995867788         -1.6588708
         859375000        0.94232765         179.423802     2.12977527e-06        -55.5854165     2.12977527e-06        -55.5854165        0.994239935        -1.95903964
    1.00260417e+09        0.94227477         179.328202     2.61060484e-06        -51.2370211     2.61060484e-06        -51.2370211        0.992445461        -2.24482995
    1.14583333e+09        0.94221448         179.232741     3.14019398e-06        -47.3087613     3.14019398e-06        -47.3087613        0.990524714        -2.51580181
     1.2890625e+09       0.942136732         179.137554     3.72066401e-06        -43.7694507     3.72066401e-06        -43.7694507        0.988536635        -2.77192643
    1.43229167e+09       0.942061535         179.042534     4.35342569e-06        -40.5844499     4.35342569e-06        -40.5844499        0.986504438        -3.01380402
    1.57552083e+09       0.941978821         178.947852     5.03925221e-06         -37.718123     5.03925221e-06         -37.718123         0.98447561        -3.24203332
       1.71875e+09       0.941878603         178.853374     5.77856867e-06         -35.135064     5.77856867e-06         -35.135064        0.982458611        -3.45783578
    1.86197917e+09       0.941780839         178.759179     6.57112859e-06        -32.8027561     6.57112859e-06        -32.8027561        0.980492132        -3.66214785
    2.00520833e+09       0.941675484         178.665316     7.41691629e-06        -30.6932255     7.41691629e-06        -30.6932255        0.978595552        -3.85619516
     2.1484375e+09       0.941572507         178.571797     8.31517622e-06        -28.7806059     8.31517622e-06        -28.7806059        0.976758661        -4.04126618
    2.29166667e+09       0.941451886         178.478591     9.26547069e-06        -27.0434844     9.26547069e-06        -27.0434844        0.975011372         -4.2183796
    2.43489583e+09       0.941333589         178.385726     1.02667537e-05        -25.4613536     1.02667537e-05        -25.4613536        0.973353978        -4.38867824
      2.578125e+09       0.941197595         178.293167     1.13180693e-05        -24.0195432     1.13180693e-05        -24.0195432        0.971776778        -4.55312771
    2.72135417e+09       0.941073834         178.201026     1.24199733e-05        -22.6987861     1.24199733e-05        -22.6987861        0.970290235        -4.71261225
    2.86458333e+09       0.940932287         178.109247     1.35694399e-05        -21.4913034     1.35694399e-05        -21.4913034         0.96889488        -4.86794948
     3.0078125e+09       0.940792947         178.017806     1.47667033e-05        -20.3840215     1.47667033e-05        -20.3840215         0.96759107         -5.0197277
    3.15104167e+09       0.940655751         177.926764     1.60100139e-05        -19.3677363     1.60100139e-05        -19.3677363        0.966359547          -5.168765
    3.29427084e+09       0.940510674           177.8361     1.72995562e-05        -18.4328541     1.72995562e-05        -18.4328541        0.965210622        -5.31543638
        3.4375e+09       0.940357724         177.745748      1.8633614e-05        -17.5734085      1.8633614e-05        -17.5734085        0.964134769        -5.46022651
    3.72395834e+09       0.940057908         177.566298     2.14327086e-05         -16.052693     2.14327086e-05         -16.052693        0.962184029        -5.74572964
    4.01041667e+09       0.939746155         177.388263     2.44003862e-05        -14.7619327     2.44003862e-05        -14.7619327        0.960480332        -6.02774032
      4.296875e+09        0.93943218         177.211727     2.75304526e-05        -13.6664538     2.75304526e-05        -13.6664538        0.958986418        -6.30819211
    4.58333334e+09       0.939115901         177.036505     3.08183859e-05        -12.7371554     3.08183859e-05        -12.7371554        0.957683281        -6.58775082
       5.15625e+09       0.938475552         176.690058     3.78465917e-05        -11.2916732     3.78465917e-05        -11.2916732        0.955528951        -7.14926233
    5.72916667e+09       0.937854164         176.348295     4.54551865e-05        -10.2836172     4.54551865e-05        -10.2836172        0.953846879        -7.71622656
    6.30208334e+09       0.937240947          176.01064     5.36227255e-05        -9.61149285     5.36227255e-05        -9.61149285        0.952521776        -8.28951871
         6.875e+09       0.936665466         175.676504     6.23368859e-05        -9.20000432     6.23368859e-05        -9.20000432        0.951457459        -8.86950345
    7.44791667e+09       0.936107529         175.345214     7.15899448e-05        -8.99259813     7.15899448e-05        -8.99259813        0.950607558        -9.45627785
    8.02083334e+09       0.935577014         175.016285     8.13814891e-05        -8.94378481     8.13814891e-05        -8.94378481        0.949901025        -10.0484765
       8.59375e+09       0.935083808         174.689369      9.1710393e-05        -9.02108535      9.1710393e-05        -9.02108535        0.949332393        -10.6466088
    9.16666667e+09       0.934608177         174.363888      0.00010257883        -9.19749608      0.00010257883        -9.19749608        0.948847666        -11.2487073
       1.03125e+10       0.933759746         173.716389     0.000125974941        -9.76440152     0.000125974941        -9.76440152        0.948102725         -12.466144
    1.14583333e+10       0.932993513         173.071352     0.000151620836         -10.524712     0.000151620836         -10.524712        0.947559824        -13.6951261
    1.26041667e+10       0.932309388         172.428139     0.000179584959        -11.4031618     0.000179584959        -11.4031618        0.947164684        -14.9346124
         1.375e+10       0.931690578         171.784842     0.000209930233         -12.352935     0.000209930233         -12.352935        0.946867313        -16.1806208
    1.48958333e+10       0.931117121         171.141323     0.000242734458        -13.3451186     0.000242734458        -13.3451186        0.946639818        -17.4327367
    1.60416667e+10       0.930579053         170.497493      0.00027806889        -14.3608775      0.00027806889        -14.3608775        0.946466371        -18.6891731
       1.71875e+10       0.930076343         169.853345     0.000316010926        -15.3895375     0.000316010926        -15.3895375         0.94632858        -19.9482423
    1.83333333e+10       0.929591204         169.208033      0.00035663347         -16.424718      0.00035663347         -16.424718         0.94622213        -21.2092767
    1.94791667e+10       0.929133903         168.561633     0.000400010121        -17.4601503     0.000400010121        -17.4601503        0.946136209        -22.4724302
        2.0625e+10       0.928681127         167.915068     0.000446219769        -18.4962616     0.000446219769        -18.4962616        0.946079529        -23.7360798
    2.17708333e+10        0.92823722          167.26706     0.000495350666        -19.5305013     0.000495350666        -19.5305013         0.94603953        -25.0004289
    2.29166667e+10       0.927798195         166.618745     0.000547466991        -20.5618023     0.000547466991        -20.5618023        0.946008368        -26.2649385
       2.40625e+10       0.927356795         165.969301     0.000602672755        -21.5899146     0.000602672755        -21.5899146        0.945986114        -27.5288342
    2.52083333e+10       0.926923169         165.318795     0.000661058464        -22.6148646     0.000661058464        -22.6148646        0.945976328        -28.7918741
    2.63541667e+10       0.926495111         164.667754     0.000722705568        -23.6376851     0.000722705568        -23.6376851        0.945969715        -30.0549267
          2.75e+10       0.926053542         164.015765     0.000787715792        -24.6575351     0.000787715792        -24.6575351        0.945976642         -31.316096
    2.86458333e+10       0.925618008         163.363069      0.00085620003        -25.6740901      0.00085620003        -25.6740901        0.945978519         -32.576595
    2.97916667e+10       0.925185779         162.710184     0.000928265524        -26.6884393     0.000928265524        -26.6884393        0.945994311          -33.83554
       3.09375e+10       0.924740865          162.05606      0.00100402639        -27.7010517      0.00100402639        -27.7010517        0.946011153        -35.0924953
    3.20833333e+10       0.924293287         161.400781      0.00108359376        -28.7110209      0.00108359376        -28.7110209        0.946027236        -36.3480657
    3.32291667e+10       0.923846379         160.745632      0.00116711735        -29.7193072      0.00116711735        -29.7193072        0.946051153        -37.6016408
        3.4375e+10       0.923397326         160.089149      0.00125472542        -30.7249009      0.00125472542        -30.7249009        0.946074811        -38.8533219
    3.55208333e+10       0.922943202         159.431821      0.00134655214        -31.7292622      0.00134655214        -31.7292622        0.946097727         -40.102858
    3.66666667e+10       0.922493647         158.773775       0.0014427046        -32.7331741       0.0014427046        -32.7331741        0.946125448        -41.3504504
       3.78125e+10       0.922030343         158.114469      0.00154339277        -33.7355765      0.00154339277        -33.7355765        0.946156818        -42.5958199
    3.89583333e+10       0.921568476         157.454837      0.00164882652        -34.7349547      0.00164882652        -34.7349547        0.946175947        -43.8386713
    4.01041667e+10       0.921112008         156.794222      0.00175910465        -35.7357017      0.00175910465        -35.7357017        0.946208782        -45.0796405
         4.125e+10       0.920643035         156.132043      0.00187436545        -36.7317297      0.00187436545        -36.7317297        0.946231938        -46.3180047
    4.23958333e+10       0.920185415         155.469524      0.00199502407        -37.7286381      0.00199502407        -37.7286381        0.946256487        -47.5534921
    4.35416667e+10       0.919712025         154.805806      0.00212101289        -38.7260432      0.00212101289        -38.7260432         0.94628063        -48.7875319
       4.46875e+10       0.919245736         154.140747      0.00225278583        -39.7196021      0.00225278583        -39.7196021        0.946307114         -50.018531
    4.58333333e+10         0.9187782         153.475387      0.00239040493        -40.7164663      0.00239040493        -40.7164663        0.946318979        -51.2471477
    4.69791667e+10       0.918309666         152.808238       0.0025342097        -41.7080789       0.0025342097        -41.7080789        0.946334155        -52.4734172
        4.8125e+10       0.917836297         152.139758      0.00268442919        -42.7008244      0.00268442919        -42.7008244        0.946348329        -53.6970463
    4.92708333e+10       0.917367464         151.470141       0.0028413968        -43.6952287       0.0028413968        -43.6952287        0.946359024        -54.9186022
    5.04166667e+10       0.916898755         150.799851      0.00300531969        -44.6858949      0.00300531969        -44.6858949        0.946367206        -56.1373149
       5.15625e+10       0.916431673         150.127398      0.00317654641        -45.6785381      0.00317654641        -45.6785381        0.946370187        -57.3537508
    5.27083333e+10       0.915957104         149.453771      0.00335544496        -46.6700951      0.00335544496        -46.6700951        0.946365875        -58.5684828
    5.38541667e+10        0.91548928         148.778645      0.00354232412        -47.6612472      0.00354232412        -47.6612472        0.946350596         -59.779909
           5.5e+10       0.915015101         148.102143      0.00373758339        -48.6532815      0.00373758339        -48.6532815        0.946333812         -60.989736
    5.61458333e+10       0.914548991         147.423963      0.00394155404         -49.643881      0.00394155404         -49.643881        0.946314597        -62.1971585
    5.72916667e+10       0.914086243         146.744551      0.00415481743        -50.6354938      0.00415481743        -50.6354938         0.94628176        -63.4024552
       5.84375e+10       0.913616377         146.062596      0.00437760554        -51.6273837      0.00437760554        -51.6273837        0.946246668         -64.605928
    5.95833333e+10       0.913151451         145.379213      0.00461054213        -52.6208321      0.00461054213        -52.6208321        0.946202636        -65.8073193
    6.07291667e+10       0.912683945         144.693952      0.00485411383         -53.614998      0.00485411383         -53.614998        0.946147735         -67.007195
        6.1875e+10       0.912216977         144.007584      0.00510890296        -54.6095106      0.00510890296        -54.6095106        0.946078758        -68.2047758
    6.30208333e+10       0.911746916         143.318251      0.00537536974        -55.6039597      0.00537536974        -55.6039597        0.945999378        -69.4014222
    6.41666667e+10       0.911279046         142.627607      0.00565427064        -56.6008143      0.00565427064        -56.6008143        0.945909351        -70.5957821
       6.53125e+10       0.910812238         141.934671      0.00594619968        -57.5992367      0.00594619968        -57.5992367        0.945809737        -71.7897589
    6.64583333e+10       0.910347639         141.239343      0.00625193989        -58.5991507      0.00625193989        -58.5991507        0.945696588         -72.982572
    6.76041667e+10       0.909880101         140.542008      0.00657219713         -59.601553      0.00657219713         -59.601553        0.945561957        -74.1740433
         6.875e+10       0.909410613         139.842556      0.00690780953         -60.605423      0.00690780953         -60.605423        0.945423947        -75.3650777
    6.98958333e+10       0.908933687         139.141351      0.00725962824         -61.611259      0.00725962824         -61.611259        0.945255347        -76.5551912
    7.10416667e+10       0.908463434         138.437325      0.00762875839         -62.620749      0.00762875839         -62.620749        0.945072738        -77.7458641
       7.21875e+10       0.907987193         137.730428      0.00801599404        -63.6334544      0.00801599404        -63.6334544        0.944872692        -78.9357614
    7.33333333e+10       0.907506966         137.021428      0.00842269875        -64.6488735      0.00842269875        -64.6488735        0.944651023        -80.1266586
    7.44791667e+10       0.907023804         136.310204      0.00884987989        -65.6684041      0.00884987989        -65.6684041        0.944411797        -81.3179518
        7.5625e+10       0.906538831         135.596637      0.00929899416        -66.6917838      0.00929899416        -66.6917838        0.944135579        -82.5100641
    7.67708333e+10       0.906053241         134.880611      0.00977129512        -67.7201405      0.00977129512        -67.7201405        0.943843071        -83.7037847
    7.79166667e+10       0.905561334         134.161554       0.0102684495        -68.7534526       0.0102684495        -68.7534526        0.943517615        -84.8984353
       7.90625e+10       0.905064334         133.440232         0.01079226        -69.7929171         0.01079226        -69.7929171        0.943168693        -86.0959139
    8.02083333e+10       0.904563959          132.71562       0.0113435958        -70.8365275       0.0113435958        -70.8365275        0.942779671        -87.2960456
    8.13541667e+10       0.904061237         131.988484       0.0119258668        -71.8888076       0.0119258668        -71.8888076        0.942353211        -88.4993268
          8.25e+10       0.903549961         131.259119       0.0125403107         -72.947591       0.0125403107         -72.947591        0.941892369        -89.7063699
    8.36458333e+10       0.903039973         130.526076       0.0131900239        -74.0147461       0.0131900239        -74.0147461        0.941380775        -90.9178008
    8.47916667e+10       0.902524316         129.790534       0.0138771446        -75.0913223       0.0138771446        -75.0913223        0.940832697         -92.134334
       8.59375e+10       0.902004293         129.052355       0.0146039951        -76.1763308       0.0146039951        -76.1763308        0.940233071        -93.3566702
    8.70833333e+10       0.901482941         128.310511       0.0153737809        -77.2719855       0.0153737809        -77.2719855        0.939567719        -94.5857261
    8.82291667e+10        0.90095252         127.566149       0.0161918398        -78.3802091       0.0161918398        -78.3802091        0.938843357        -95.8223883
        8.9375e+10       0.900424372         126.817847       0.0170596516        -79.5002547       0.0170596516        -79.5002547        0.938056572        -97.0670603
    9.05208333e+10       0.899884524         126.066227       0.0179826939        -80.6346859       0.0179826939        -80.6346859        0.937198939        -98.3222127
