! Created Mon Apr 12 10:25:21 2010
# hz S ma R 50
! 2 Port Network Data from data block
! freq  magS11  angS11  magS21  angS21  magS12  angS12  magS22  angS22  
!     
                 0                 1     -3.1558863e-09         1.1101e-11         90.0000866         1.1101e-11         90.0000866                  1    -3.18667407e-09
        3.18287037                 1    -1.00448278e-08         3.5334e-11         90.0000272         3.5334e-11         90.0000272                  1    -1.01427634e-08
        31.8287037                 1    -1.00448316e-07         3.5334e-10         90.0000005         3.5334e-10         90.0000005                  1     -1.0142738e-07
        318.287037                 1    -1.00448312e-06         3.5334e-09         89.9999732         3.5334e-09         89.9999732                  1    -1.01427391e-06
        3182.87037                 1    -1.00448313e-05         3.5334e-08         89.9997276         3.5334e-08         89.9997276                  1    -1.01427391e-05
        31828.7037                 1    -0.000100448312         3.5334e-07         89.9972763         3.5334e-07         89.9972763                  1    -0.000101427391
        318287.037       0.999999996     -0.00100448296      3.5334004e-06         89.9727629      3.5334004e-06         89.9727629        0.999999995     -0.00101427354
        3182870.37        0.99999961       -0.010044669     3.53333992e-05         89.7276391     3.53333992e-05         89.7276391        0.999999517      -0.0101423711
        31828703.7       0.999961396       -0.100289654     0.000352978311         87.2778274     0.000352978311         87.2778274        0.999953102       -0.101082031
        63657407.4       0.999849579       -0.199704228     0.000703784015         84.5649937     0.000703784015         84.5649937        0.999825882       -0.200511472
        95486111.2       0.999673754       -0.297667088       0.0010503548         81.8705919       0.0010503548         81.8705919        0.999640782        -0.29787484
         127314815       0.999443324        -0.39393503      0.00139061722         79.2031745      0.00139061722         79.2031745        0.999410073       -0.393446322
         159143519       0.999165243       -0.488446946      0.00172270351         76.5706948      0.00172270351         76.5706948        0.999137348        -0.48745451
         190972222       0.998844118       -0.581182284      0.00204510541         73.9815633      0.00204510541         73.9815633        0.998823548       -0.579931078
         222800926       0.998483275       -0.672099764       0.0023563165         71.4425599       0.0023563165         71.4425599        0.998469788       -0.670785987
         254629630       0.998085632        -0.76113106      0.00265512774         68.9593749      0.00265512774         68.9593749        0.998078012       -0.759883816
         286458334       0.997654153       -0.848194216      0.00294053386         66.5368615      0.00294053386         66.5368615        0.997650918       -0.847086522
         318287037       0.997191996       -0.933208571      0.00321193663         64.1808728      0.00321193663         64.1808728        0.997191733       -0.932273541
         350115741        0.99670251        -1.01610557      0.00346877121         61.8931176      0.00346877121         61.8931176        0.996704007        -1.01535016
         381944445       0.996189162        -1.09683506       0.0037107751          59.676544       0.0037107751          59.676544        0.996191445        -1.09625007
         413773148       0.995655454        -1.17536815      0.00393791273         57.5351684      0.00393791273         57.5351684        0.995657773        -1.17493511
         445601852       0.995104837        -1.25169766      0.00415021539         55.4682978      0.00415021539         55.4682978        0.995106642        -1.25139334
         477430556       0.994540645        -1.32583708       0.0043480599         53.4774587       0.0043480599         53.4774587        0.994541553        -1.32563653
         509259260       0.993966039        -1.39781867      0.00453163465         51.5631229      0.00453163465         51.5631229        0.993965806        -1.39769707
         549045139       0.993237603        -1.48483649      0.00474182883         49.2751165      0.00474182883         49.2751165        0.993235766        -1.48478084
         588831019       0.992502709        -1.56868373      0.00493164807         47.1043733      0.00493164807         47.1043733         0.99249922        -1.56866154
         628616898       0.991765954        -1.64950985      0.00510220145         45.0476432      0.00510220145         45.0476432        0.991760881        -1.64949354
         668402778         0.9910313        -1.72748214      0.00525477642         43.1022263      0.00525477642         43.1022263        0.991024792        -1.72744917
         708188658        0.99030016        -1.80277389       0.0053906932          41.265114       0.0053906932          41.265114        0.990290134        -1.80273426
         747974537       0.989580156        -1.87557032      0.00551102632         39.5317536      0.00551102632         39.5317536        0.989570096        -1.87547353
         787760417       0.988870352        -1.94607874      0.00561722377         37.8977065      0.00561722377         37.8977065        0.988860256        -1.94592469
         827546297       0.988170706        -2.01446601      0.00571040561         36.3605867      0.00571040561         36.3605867        0.988160536        -2.01419666
         867332176       0.987481191        -2.08089956      0.00579172907         34.9155146      0.00579172907         34.9155146        0.987470979        -2.08057272
         907118056       0.986811792        -2.14552569      0.00586230905         33.5583272      0.00586230905         33.5583272        0.986801537        -2.14514128
         946903936       0.986152526        -2.20853341      0.00592309484         32.2848991      0.00592309484         32.2848991        0.986142225        -2.20809134
         986689815       0.985513368        -2.27001078      0.00597511109         31.0905486      0.00597511109         31.0905486        0.985503059        -2.26956906
     1.0264757e+09       0.984894395        -2.33018363      0.00601926697         29.9721576      0.00601926697         29.9721576        0.984883996        -2.32962601
    1.06626158e+09       0.984285582        -2.38912829       0.0060563029         28.9269706       0.0060563029         28.9269706        0.984275133        -2.38851279
    1.10604745e+09        0.98368695        -2.44695713      0.00608696701         27.9492891      0.00608696701         27.9492891         0.98367649        -2.44634187
    1.14583333e+09       0.983108559        -2.50381557      0.00611191715         27.0362795      0.00611191715         27.0362795        0.983098001         -2.5030841
    1.22540509e+09       0.981992409        -2.61477053      0.00614725071         25.3941003      0.00614725071         25.3941003        0.981991816        -2.61401281
    1.30497685e+09       0.980937363        -2.72271873      0.00616672533         23.9722057      0.00616672533         23.9722057        0.980936698        -2.72190192
    1.38454861e+09       0.979933523        -2.82812671      0.00617373143          22.750507      0.00617373143          22.750507        0.979922845        -2.82733799
    1.46412037e+09       0.978971062        -2.93146806      0.00617135143         21.7076225      0.00617135143         21.7076225        0.978970346        -2.93064976
    1.54369213e+09       0.978050042        -3.03301642       0.0061618394         20.8247488       0.0061618394         20.8247488        0.978049301        -3.03219743
    1.62326389e+09       0.977170564        -3.13304688       0.0061470791         20.0860722       0.0061470791         20.0860722        0.977169799        -3.13222722
    1.70283565e+09       0.976332597        -3.23166008      0.00612874494         19.4750385      0.00612874494         19.4750385        0.976331864        -3.23089839
    1.78240741e+09       0.975516331        -3.32920147      0.00610808935         18.9801657      0.00610808935         18.9801657         0.97552556        -3.32840511
    1.94155093e+09       0.973988612        -3.52106496      0.00606311833         18.2873258      0.00606311833         18.2873258        0.973987936        -3.52041909
    2.10069444e+09       0.972547602        -3.70952012      0.00601795654         17.9264278      0.00601795654         17.9264278        0.972556934        -3.70889412
    2.25983796e+09       0.971203131        -3.89487548       0.0059762472         17.8301025       0.0059762472         17.8301025        0.971212497        -3.89430569
    2.41898148e+09       0.969935261        -4.07762027      0.00593970325         17.9435221      0.00593970325         17.9435221        0.969944667        -4.07710689
      2.578125e+09       0.968743749        -4.25787984      0.00590970477         18.2234018      0.00590970477         18.2234018        0.968743229        -4.25746697
    2.73726852e+09       0.967608681        -4.43605003      0.00588664771         18.6359361      0.00588664771         18.6359361         0.96760814        -4.43563678
    2.89641204e+09       0.966539902        -4.61222371      0.00587059446          19.150993      0.00587059446          19.150993        0.966539339         -4.6118101
    3.05555556e+09       0.965517471        -4.78669529      0.00586161079         19.7444305      0.00586161079         19.7444305        0.965516887        -4.78628134
    4.01041667e+09       0.960447657        -5.80639898      0.00593618788         24.1367345      0.00593618788         24.1367345        0.960446544        -5.80574613
    4.96527778e+09       0.956783235         -6.8013912      0.00617826409         28.7142996      0.00617826409         28.7142996        0.956780867        -6.80020195
    5.92013889e+09       0.954139832        -7.79202171      0.00653057198         32.8045461      0.00653057198         32.8045461         0.95413712        -7.79083181
         6.875e+09       0.952225663        -8.78678533      0.00695773225         36.2614966      0.00695773225         36.2614966        0.952211198        -8.78509329
    7.82986111e+09       0.950805569        -9.78984028      0.00743794216         39.1096273      0.00743794216         39.1096273        0.950798769        -9.78746495
    8.78472223e+09       0.949735726        -10.8010607      0.00795716464         41.4223952      0.00795716464         41.4223952         0.94972823        -10.7986903
    9.73958334e+09       0.948922033        -11.8203064      0.00850594592         43.2793282      0.00850594592         43.2793282         0.94891384        -11.8179424
    1.06944444e+10       0.948285932        -12.8463924       0.0090780628         44.7527561       0.0090780628         44.7527561        0.948286789        -12.8439017
    1.16493056e+10       0.947789159        -13.8784826      0.00966898357         45.9055234      0.00966898357         45.9055234        0.947798982        -13.8758451
    1.26041667e+10       0.947399838        -14.9151723       0.0102752405          46.789184       0.0102752405          46.789184        0.947396633        -14.9120946
    1.35590278e+10       0.947077753        -15.9559496       0.0108946375         47.4465533       0.0108946375         47.4465533        0.947083239        -15.9527086
    1.45138889e+10       0.946820477        -16.9997775       0.0115252323           47.91154       0.0115252323           47.91154        0.946827909        -16.9971088
      1.546875e+10       0.946617961        -18.0463985       0.0121658822         48.2136161       0.0121658822         48.2136161        0.946624587        -18.0437216
    1.64236111e+10       0.946447168        -19.0952302       0.0128154291         48.3760769       0.0128154291         48.3760769        0.946449712        -19.0919738
    1.73784722e+10       0.946306596        -20.1459483        0.013473138         48.4180218        0.013473138         48.4180218        0.946314099        -20.1419122
    1.83333333e+10       0.946187087        -21.1971099       0.0141388253         48.3573743       0.0141388253         48.3573743         0.94619698        -21.1936302
    1.94791667e+10       0.946083683        -22.4599837       0.0149466192         48.1635164       0.0149466192         48.1635164        0.946088488        -22.4559316
        2.0625e+10       0.945990995        -23.7238822        0.015764062         47.8590683        0.015764062         47.8590683        0.946003478        -23.7195806
    2.17708333e+10       0.945929061        -24.9875099       0.0165919905         47.4596427       0.0165919905         47.4596427         0.94593091        -24.9834483
    2.29166667e+10       0.945875404        -26.2513512       0.0174278215         46.9763761       0.0174278215         46.9763761        0.945884742          -26.24702
       2.40625e+10       0.945830125         -27.514633       0.0182744502         46.4234526       0.0182744502         46.4234526        0.945837885        -27.5102901
    2.52083333e+10        0.94580163        -28.7776451       0.0191291456          45.809077       0.0191291456          45.809077        0.945811759        -28.7724701
    2.63541667e+10       0.945783519        -30.0390577       0.0199942092         45.1377884       0.0199942092         45.1377884        0.945796771        -30.0343949
          2.75e+10       0.945774335         -31.299444       0.0208684993         44.4195096       0.0208684993         44.4195096        0.945777346        -31.2950792
    2.86458333e+10       0.945767877        -32.5588693       0.0217523207         43.6588598       0.0217523207         43.6588598        0.945772351         -32.553665
    2.97916667e+10       0.945760593        -33.8165892        0.022646775         42.8581129        0.022646775         42.8581129        0.945768746        -33.8118835
       3.09375e+10       0.945759136        -35.0728684       0.0235515034         42.0260904       0.0235515034         42.0260904        0.945768023         -35.067309
    3.20833333e+10       0.945764387        -36.3274432       0.0244669284         41.1654378       0.0244669284         41.1654378        0.945771262        -36.3218735
    3.32291667e+10       0.945776644        -37.5800424       0.0253944026         40.2738532       0.0253944026         40.2738532        0.945781508        -37.5744649
        3.4375e+10       0.945787827        -38.8307688       0.0263334958         39.3615109       0.0263334958         39.3615109        0.945792201        -38.8243345
    3.55208333e+10       0.945791027        -40.0789091       0.0272842532         38.4253174       0.0272842532         38.4253174        0.945799524        -40.0729342
    3.66666667e+10       0.945804512        -41.3256024       0.0282485508         37.4702775       0.0282485508         37.4702775        0.945810862        -41.3196178
       3.78125e+10        0.94581411        -42.5696529       0.0292264215         36.4962408       0.0292264215         36.4962408        0.945825679        -42.5632516
    3.89583333e+10       0.945817318        -43.8116675       0.0302183455         35.5072609       0.0302183455         35.5072609        0.945826593        -43.8052526
    4.01041667e+10       0.945826411        -45.0514017       0.0312244422         34.5028527       0.0312244422         34.5028527        0.945833382        -45.0441195
         4.125e+10       0.945831713        -46.2881421       0.0322468713          33.484573       0.0322468713          33.484573        0.945836404         -46.281709
    4.23958333e+10        0.94583097        -47.5233417       0.0332864355          32.453502       0.0332864355          32.453502        0.945840124        -47.5164571
    4.35416667e+10       0.945835116        -48.7558352       0.0343426048           31.41011       0.0343426048           31.41011        0.945840899        -48.7480855
       4.46875e+10        0.94582625        -49.9854001       0.0354172941         30.3580955       0.0354172941         30.3580955        0.945836944        -49.9780342
    4.58333333e+10       0.945823431         -51.212946       0.0365103753         29.2954348       0.0365103753         29.2954348        0.945823724        -51.2051883
    4.69791667e+10        0.94580102        -52.4379087       0.0376246626         28.2249488       0.0376246626         28.2249488        0.945806501        -52.4305215
        4.8125e+10       0.945784551         -53.660671       0.0387601978         27.1448251       0.0387601978         27.1448251        0.945785301        -53.6524313
    4.92708333e+10       0.945747419        -54.8807254       0.0399185113         26.0573064       0.0399185113         26.0573064        0.945753452        -54.8728349
    5.04166667e+10       0.945714811        -56.0983803       0.0410993507         24.9625719       0.0410993507         24.9625719        0.945718075        -56.0904835
       5.15625e+10       0.945676021        -57.3138453       0.0423065982         23.8597703       0.0423065982         23.8597703        0.945673505        -57.3051087
    5.27083333e+10        0.94561716        -58.5265459       0.0435387304         22.7515636       0.0435387304         22.7515636        0.945620121        -58.5181303
    5.38541667e+10       0.945557894        -59.7371948       0.0447997412         21.6373026       0.0447997412         21.6373026         0.94555792        -59.7287767
           5.5e+10       0.945492395        -60.9455136       0.0460905804          20.516907       0.0460905804          20.516907        0.945489491        -60.9370968
    5.61458333e+10       0.945400754        -62.1515017       0.0474116847         19.3919044       0.0474116847         19.3919044          0.9453996        -62.1425538
    5.72916667e+10       0.945307596        -63.3552573       0.0487657103         18.2603237       0.0487657103         18.2603237        0.945312278        -63.3465839
       5.84375e+10       0.945197431        -64.5576085       0.0501545071         17.1245663       0.0501545071         17.1245663        0.945203407        -64.5483826
    5.95833333e+10       0.945081282        -65.7574935       0.0515809633          15.983083       0.0515809633          15.983083        0.945074952        -65.7480118
    6.07291667e+10       0.944943609        -66.9557859       0.0530445668         14.8368604       0.0530445668         14.8368604        0.944937925        -66.9457551
        6.1875e+10       0.944790339        -68.1519688        0.054550918         13.6862294        0.054550918         13.6862294        0.944790484        -68.1421714
    6.30208333e+10       0.944619395        -69.3466258       0.0561001688         12.5300263       0.0561001688         12.5300263        0.944616171        -69.3368287
    6.41666667e+10       0.944432613         -70.539774       0.0576952411         11.3697233       0.0576952411         11.3697233         0.94442936        -70.5294091
       6.53125e+10       0.944231629        -71.7314169       0.0593387156          10.204924       0.0593387156          10.204924        0.944224824        -71.7210561
    6.64583333e+10       0.944005369        -72.9219478       0.0610353136         9.03514242       0.0610353136         9.03514242        0.943995018        -72.9115953
    6.76041667e+10       0.943755449        -74.1113942       0.0627859366          7.8604923       0.0627859366          7.8604923        0.943741559        -74.1010542
         6.875e+10       0.943483278        -75.2997726       0.0645956219         6.68078211       0.0645956219         6.68078211        0.943475532        -75.2896035
