! Created Mon Apr 12 12:41:52 2010
# hz S ma R 50
! 2 Port Network Data from data block
! freq  magS11  angS11  magS21  angS21  magS12  angS12  magS22  angS22  
!     
                 0                 1    -6.69374113e-10         1.1893e-14         90.0014895         1.1893e-14         90.0014895                  1    -6.69382855e-10
        2.86458333                 1    -1.91747793e-09          3.407e-14         90.0000014          3.407e-14         90.0000014                  1    -1.91750297e-09
        28.6458333                 1    -1.91747793e-08         3.4068e-13          89.999998         3.4068e-13          89.999998                  1    -1.91750297e-08
        286.458333                 1    -1.91747793e-07         3.4068e-12         89.9999803         3.4068e-12         89.9999803                  1    -1.91750297e-07
        2864.58333                 1    -1.91747793e-06         3.4068e-11         89.9998032         3.4068e-11         89.9998032                  1    -1.91750297e-06
        28645.8333                 1    -1.91747793e-05         3.4068e-10         89.9980318         3.4068e-10         89.9980318                  1    -1.91750297e-05
        286458.333                 1    -0.000191747792      3.4068002e-09         89.9803178      3.4068002e-09         89.9803178                  1    -0.000191750297
        2864583.33       0.999999989     -0.00191747748      3.4068201e-08          89.803179      3.4068201e-08          89.803179        0.999999989     -0.00191750252
        28645833.3       0.999998918      -0.0191743312     3.41708413e-07         88.0473881     3.41708413e-07         88.0473881        0.999998918      -0.0191745819
         286458333       0.999892329       -0.191302027     4.03365918e-06         78.9591686     4.03365918e-06         78.9591686         0.99989237       -0.191304817
         572916667       0.999575991       -0.379984153     9.12557054e-06         80.2997562     9.12557054e-06         80.2997562        0.999576146       -0.379991389
         859375000       0.999069996       -0.563687686     1.43394871e-05         82.3842334     1.43394871e-05         82.3842334        0.999070325       -0.563702379
    1.14583333e+09       0.998402947       -0.740523493     1.95068905e-05         83.8328872     1.95068905e-05         83.8328872        0.998403484       -0.740549499
     1.2890625e+09       0.998019663       -0.825935653     2.20735772e-05         84.3674072     2.20735772e-05         84.3674072         0.99802031       -0.825968864
    1.43229167e+09       0.997609252       -0.909192219     2.46320152e-05         84.8092565     2.46320152e-05         84.8092565        0.997610007       -0.909233653
    1.57552083e+09       0.997176271       -0.990226702     2.71822367e-05         85.1772626     2.71822367e-05         85.1772626        0.997177131       -0.990277327
       1.71875e+09       0.996725175        -1.06900774     2.97261806e-05         85.4866385     2.97261806e-05         85.4866385        0.996726134        -1.06906845
    1.86197917e+09        0.99626023        -1.14553582     3.22647821e-05         85.7485653     3.22647821e-05         85.7485653         0.99626128        -1.14560742
    2.00520833e+09       0.995785448        -1.21983947     3.47999553e-05         85.9721435     3.47999553e-05         85.9721435        0.995786579        -1.21992265
     2.1484375e+09       0.995304535        -1.29197115     3.73306378e-05         86.1639238     3.73306378e-05         86.1639238        0.995305736        -1.29206649
    2.29166667e+09       0.994820862        -1.36200303     3.98587619e-05         86.3294974     3.98587619e-05         86.3294974        0.994822123        -1.36211101
    2.43489583e+09       0.994337446        -1.43002298     4.23842895e-05         86.4727759     4.23842895e-05         86.4727759        0.994338753        -1.43014394
      2.578125e+09       0.993856943        -1.49613065      4.4906172e-05         86.5972165      4.4906172e-05         86.5972165        0.993858283        -1.49626485
    2.72135417e+09       0.993381655        -1.56043405     4.74263678e-05         86.7057513     4.74263678e-05         86.7057513        0.993383018        -1.56058163
    2.86458333e+09       0.992913546        -1.62304639     4.99438552e-05          86.800392     4.99438552e-05          86.800392        0.992914919        -1.62320741
     3.0078125e+09       0.992454257        -1.68408343     5.24596046e-05         86.8831043     5.24596046e-05         86.8831043        0.992455629        -1.68425785
    3.15104167e+09       0.992005134        -1.74366123     5.49735994e-05         86.9553256     5.49735994e-05         86.9553256        0.992006494        -1.74384897
    3.29427083e+09       0.991567253        -1.80189431     5.74858171e-05         87.0184392     5.74858171e-05         87.0184392        0.991568592         -1.8020952
        3.4375e+09       0.991141446        -1.85889419     5.99962441e-05         87.0734995     5.99962441e-05         87.0734995        0.991142754        -1.85910803
    3.72395833e+09       0.990325091        -1.96961646     6.50126862e-05         87.1629006     6.50126862e-05         87.1629006        0.990325228        -1.96984774
    4.01041667e+09       0.989559894        -2.07664231     7.00228608e-05         87.2292464     7.00228608e-05         87.2292464        0.989560075        -2.07693162
      4.296875e+09       0.988856094         -2.1806323     7.50257232e-05         87.2768311     7.50257232e-05         87.2768311        0.988856285         -2.1809218
    4.58333333e+09       0.988203883        -2.28227922     8.00232421e-05         87.3090393     8.00232421e-05         87.3090393        0.988204082        -2.28256889
    5.72916667e+09       0.986073573        -2.67385736     9.99558298e-05         87.3260894     9.99558298e-05         87.3260894        0.986073853        -2.67420561
         6.875e+09       0.984559666        -3.05548592     0.000119790499         87.2247279     0.000119790499         87.2247279        0.984560093        -3.05595081
    8.02083333e+09       0.983468648        -3.43671254     0.000139535042         87.0489296     0.000139535042         87.0489296        0.983469128        -3.43717777
    9.16666667e+09       0.982684285        -3.82090085     0.000159184989         86.8208168     0.000159184989         86.8208168        0.982684885        -3.82142443
       1.03125e+10       0.982099053        -4.20923302     0.000178743256         86.5536347     0.000178743256         86.5536347        0.982099787        -4.20981485
    1.14583333e+10       0.981664199         -4.6015568     0.000198213161         86.2554347     0.000198213161         86.2554347        0.981655034        -4.60218541
    1.26041667e+10       0.981320659        -4.99761279     0.000217608024         85.9328423     0.000217608024         85.9328423        0.981321617         -4.9982526
         1.375e+10        0.98104884        -5.39684091     0.000236921549         85.5896651     0.000236921549         85.5896651        0.981049969        -5.39753864
    1.48958333e+10       0.980839072        -5.79876905     0.000256167238         85.2299687     0.000256167238         85.2299687        0.980840284        -5.79946644
    1.60416667e+10       0.980671212        -6.20282919     0.000275348826         84.8563236     0.000275348826         84.8563236        0.980672293        -6.20341002
       1.71875e+10        0.98053561        -6.60882535     0.000294479856         84.4713916     0.000294479856         84.4713916        0.980526828        -6.60947305
    1.83333333e+10       0.980421921        -7.01628758     0.000313543845         84.0770299     0.000313543845         84.0770299         0.98041444        -7.01751902
    2.29166667e+10       0.980132841        -8.65945169     0.000389378823         82.4353057     0.000389378823         82.4353057        0.980125967        -8.66069552
          2.75e+10       0.979983635        -10.3134749     0.000464558336         80.7366665     0.000464558336         80.7366665        0.979987216        -10.3146253
    3.20833333e+10       0.979918764        -11.9733072     0.000539135925         79.0164537     0.000539135925         79.0164537        0.979913131        -11.9745725
    3.66666667e+10       0.979884959        -13.6347611     0.000613054944         77.2930831     0.000613054944         77.2930831        0.979882313        -13.6366036
         4.125e+10       0.979891567        -15.2959399     0.000686282675         75.5725504     0.000686282675         75.5725504        0.979887197        -15.2972222
    4.58333333e+10       0.979912016        -16.9548493     0.000758723679         73.8603189     0.000758723679         73.8603189        0.979901635        -16.9568682
    5.04166667e+10       0.979940683        -18.6104135     0.000830294098          72.157742     0.000830294098          72.157742        0.979940781        -18.6122624
           5.5e+10       0.979982051        -20.2619341     0.000900928092         70.4653171     0.000900928092         70.4653171        0.979986523        -20.2643305
    5.72916667e+10       0.980007488        -21.0856146     0.000935863254         69.6232368     0.000935863254         69.6232368        0.980003219        -21.0882172
    5.95833333e+10       0.980034845         -21.908127     0.000970539101         68.7842188     0.000970539101         68.7842188        0.980031215         -21.910733
        6.1875e+10       0.980063337        -22.7296374      0.00100493707         67.9480945      0.00100493707         67.9480945        0.980060347         -22.732246
    6.41666667e+10       0.980093484        -23.5490071      0.00103905118         67.1143477      0.00103905118         67.1143477        0.980091132        -23.5516178
    6.64583333e+10       0.980127919        -24.3669342      0.00107287242         66.2841751      0.00107287242         66.2841751        0.980126204        -24.3695466
         6.875e+10       0.980161408        -25.1830472      0.00110637007           65.45584      0.00110637007           65.45584        0.980164586        -25.1861896
    7.10416667e+10        0.98019709         -25.998041      0.00113959638         64.6307705      0.00113959638         64.6307705        0.980196649         -26.000655
    7.33333333e+10       0.980234134        -26.8107692      0.00117248482         63.8086544      0.00117248482         63.8086544        0.980225402        -26.8136468
        7.5625e+10       0.980270969        -27.6213941       0.0012051291         62.9918444       0.0012051291         62.9918444        0.980267571        -27.6247965
    7.79166667e+10       0.980310912        -28.4305946      0.00123736334         62.1753804      0.00123736334         62.1753804        0.980303575        -28.4334854
    8.02083333e+10       0.980343242        -29.2375058      0.00126927114         61.3624486      0.00126927114         61.3624486        0.980341487        -29.2409122
          8.25e+10       0.980388706        -30.0422295      0.00130085421         60.5531855      0.00130085421         60.5531855         0.98038777        -30.0456367
    8.47916667e+10        0.98042863        -30.8454934        0.001332032         59.7451729        0.001332032         59.7451729        0.980423384        -30.8483992
    8.70833333e+10       0.980468581        -31.6458623      0.00136288226         58.9414342      0.00136288226         58.9414342        0.980469277        -31.6492695
        8.9375e+10       0.980508854        -32.4447948       0.0013934089         58.1416768       0.0013934089         58.1416768        0.980510363         -32.448201
    9.16666667e+10       0.980554263         -33.240829      0.00142352049          57.344144      0.00142352049          57.344144        0.980548218        -33.2445538
    9.39583333e+10       0.980600127        -34.0349199      0.00145330516         56.5507082      0.00145330516         56.5507082        0.980594967        -34.0386491
         9.625e+10       0.980647644        -34.8264077      0.00148267671         55.7592449      0.00148267671         55.7592449        0.980637654        -34.8296608
    9.85416667e+10       0.980686916         -35.615782      0.00151162167         54.9704072      0.00151162167         54.9704072        0.980683518        -35.6195177
    1.00833333e+11       0.980732629        -36.4025212      0.00154022941         54.1857354      0.00154022941         54.1857354        0.980730109        -36.4062591
       1.03125e+11       0.980776954        -37.1862953      0.00156848216         53.4058277      0.00156848216         53.4058277        0.980767343        -37.1903878
    1.05416667e+11       0.980822307        -37.9685375      0.00159630532         52.6278846      0.00159630532         52.6278846        0.980821537        -37.9722777
    1.07708333e+11       0.980864511        -38.7472946      0.00162374179         51.8554574      0.00162374179         51.8554574        0.980856812        -38.7514006
           1.1e+11       0.980906224        -39.5239942      0.00165077326         51.0832569      0.00165077326         51.0832569        0.980907191        -39.5277339
