! Created Mon Apr 12 15:27:26 2010
# hz S ma R 50
! 2 Port Network Data from data block
! freq  magS11  angS11  magS21  angS21  magS12  angS12  magS22  angS22  
!     
                 0           0.99771                180         3.2993e-14                 90         3.2993e-14                 90            0.99771                180
        3.05555556           0.99771                180         1.0081e-13         90.0002797         1.0081e-13         90.0002797            0.99771                180
        30.5555556           0.99771                180         1.0081e-12                 90         1.0081e-12                 90            0.99771                180
        305.555556           0.99771                180         1.0081e-11         89.9999972         1.0081e-11         89.9999972            0.99771                180
        3055.55555           0.99771         179.999999         1.0081e-10         89.9999995         1.0081e-10         89.9999995            0.99771         179.999999
        30555.5556           0.99771         179.999995         1.0081e-09          89.999995         1.0081e-09          89.999995            0.99771         179.999995
        305555.556           0.99771         179.999947         1.0081e-08         89.9999502         1.0081e-08         89.9999502            0.99771         179.999947
        3055555.56           0.99771         179.999472         1.0081e-07         89.9995017         1.0081e-07         89.9995017            0.99771         179.999471
        30555555.6       0.997710004         179.994719         1.0081e-06         89.9950172         1.0081e-06         89.9950172        0.997710004         179.994708
         305555556       0.997710424         179.947189     1.00810038e-05         89.9501718     1.00810038e-05         89.9501718        0.997710426         179.947084
    3.05555556e+09       0.997592369         179.471938     0.000100813813         89.5016854     0.000100813813         89.5016854        0.997582555         179.470778
    6.11111111e+09       0.997329029         178.945115     0.000201640517          89.003158     0.000201640517          89.003158         0.99731986          178.94252
    9.16666666e+09        0.99703841         178.421382     0.000302533069          88.504356     0.000302533069          88.504356        0.997030373         178.417288
    1.22222222e+10       0.996778942         177.900787     0.000403494551         88.0050805     0.000403494551         88.0050805        0.996762439         177.895287
    1.83333333e+10       0.996351352         176.864726     0.000605747831         87.0042047     0.000605747831         87.0042047        0.996339103         176.856566
    2.44444444e+10       0.995995704         175.830797     0.000808620213         85.9995379     0.000808620213         85.9995379        0.995979251         175.820057
    3.05555556e+10       0.995652665         174.796855      0.00101226845         84.9893187      0.00101226845         84.9893187        0.995633533         174.783579
    3.66666667e+10       0.995302169         173.762476      0.00121702663         83.9732025      0.00121702663         83.9732025        0.995281838         173.746712
    4.58333333e+10       0.994742698         172.208841      0.00152639466          82.432394      0.00152639466          82.432394        0.994719496         172.188891
           5.5e+10        0.99416374         170.651563      0.00183920342         80.8695489      0.00183920342         80.8695489        0.994139995         170.627974
    6.41666667e+10       0.993575724         169.087705      0.00215613251         79.2794955      0.00215613251         79.2794955        0.993554907         169.060457
    7.33333333e+10       0.993001631         167.515064      0.00247777105         77.6571713      0.00247777105         77.6571713        0.992977503         167.484022
    7.79166667e+10       0.992720221          166.72402      0.00264052447         76.8324498      0.00264052447         76.8324498        0.992700696         166.691135
          8.25e+10       0.992448685         165.928892      0.00280464122         75.9973497      0.00280464122         75.9973497        0.992424983         165.894025
    8.70833333e+10       0.992180195         165.129402      0.00297028021         75.1520206      0.00297028021         75.1520206        0.992153312         165.092539
    9.16666667e+10       0.991910883         164.324691      0.00313742262         74.2952188      0.00313742262         74.2952188        0.991879132         164.286375
         9.625e+10        0.99164446         163.514597       0.0033062529         73.4269058       0.0033062529         73.4269058        0.991611449         163.474258
    1.00833333e+11       0.991359105         162.697899      0.00347667476          72.545894      0.00347667476          72.545894        0.991335447         162.655698
    1.05416667e+11       0.991072228         161.874014      0.00364889319         71.6524437      0.00364889319         71.6524437        0.991039922         161.829597
           1.1e+11       0.990760706         161.042205      0.00382279686         70.7427029      0.00382279686         70.7427029         0.99072716         160.996282
