! Created Mon Apr 12 10:27:29 2010
# hz S ma R 50
! 2 Port Network Data from data block
! freq  magS11  angS11  magS21  angS21  magS12  angS12  magS22  angS22  
!     
                 0           0.93935                180           0.010439    -4.39781744e-09           0.010439    -4.39781744e-09            0.93935                180
        3.81944444           0.93935                180           0.010439    -1.67973947e-08           0.010439    -1.67973947e-08            0.93935                180
        38.1944444           0.93935                180           0.010439    -1.67973947e-07           0.010439    -1.67973947e-07            0.93935                180
        381.944444           0.93935                180           0.010439    -1.67973947e-06           0.010439    -1.67973947e-06            0.93935                180
        3819.44444           0.93935         179.999997           0.010439    -1.67973947e-05           0.010439    -1.67973947e-05            0.93935         179.999997
        38194.4444           0.93935         179.999975           0.010439    -0.000167973947           0.010439    -0.000167973947            0.93935         179.999975
        381944.444           0.93935         179.999748           0.010439     -0.00167973947           0.010439     -0.00167973947            0.93935         179.999748
        3819444.44       0.939350001         179.997481       0.0104390004      -0.0167968454       0.0104390004      -0.0167968454        0.939350001          179.99748
        38194444.4       0.939350091         179.974809       0.0104390448       -0.167770389       0.0104390448       -0.167770389        0.939350091         179.974805
         381944444       0.939329075         179.748151       0.0103777031        -1.53067132       0.0103777031        -1.53067132        0.939319077         179.748111
         763888889        0.93924624         179.496679       0.0102736983        -2.61498595       0.0102736983        -2.61498595        0.939246253         179.496594
    1.14583333e+09       0.939121327         179.245956       0.0101796944        -3.47290252       0.0101796944        -3.47290252        0.939121353         179.245834
    1.52777778e+09       0.938954074         178.996278       0.0100917072        -4.24669125       0.0100917072        -4.24669125        0.938954126         178.996095
    1.90972222e+09       0.938744125         178.747961       0.0100018874        -4.96221002       0.0100018874        -4.96221002        0.938734193         178.747764
    2.29166667e+09       0.938491052         178.501272      0.00990855218        -5.61554098      0.00990855218        -5.61554098         0.93848116         178.501012
    2.67361111e+09       0.938204404         178.256377       0.0098119033        -6.20070935       0.0098119033        -6.20070935        0.938194561         178.256053
    3.05555556e+09       0.937883688         178.013428      0.00971353289        -6.71493684      0.00971353289        -6.71493684        0.937883896         178.013061
        3.4375e+09       0.937538399         177.772543      0.00961503779        -7.15805502      0.00961503779        -7.15805502        0.937538671         177.772115
    3.81944444e+09       0.937178085         177.533726      0.00951797382        -7.53433749      0.00951797382        -7.53433749         0.93717843         177.533237
    4.20138889e+09       0.936812248         177.297055      0.00942378225        -7.84876498      0.00942378225        -7.84876498        0.936802684         177.296476
    4.58333333e+09       0.936420564         177.062338      0.00933335777        -8.10631477      0.00933335777        -8.10631477        0.936421025         177.061788
    4.96527778e+09       0.936032575         176.829657      0.00924730779        -8.31498899      0.00924730779        -8.31498899        0.936023144         176.829012
    5.34722222e+09       0.935637995         176.598853      0.00916601454        -8.48026082      0.00916601454        -8.48026082        0.935628666         176.598144
    5.72916667e+09       0.935236561         176.369798      0.00908982196        -8.60924606      0.00908982196        -8.60924606        0.935237384         176.369003
    6.11111111e+09       0.934848067         176.142384      0.00901874177        -8.70718358      0.00901874177        -8.70718358        0.934838964         176.141548
         6.875e+09       0.934079087         175.692007      0.00889108973        -8.83057928      0.00889108973        -8.83057928        0.934070317         175.690982
    7.63888889e+09       0.933340108         175.246626      0.00878167019        -8.88470821      0.00878167019        -8.88470821        0.933331634         175.245474
    8.40277778e+09       0.932640589         174.805282      0.00868840212        -8.89542074      0.00868840212        -8.89542074        0.932632622          174.80388
    9.16666666e+09       0.931980547         174.366973      0.00860893171        -8.88187153      0.00860893171        -8.88187153        0.931972952         174.365445
    9.93055555e+09       0.931360102         173.930941      0.00854121972        -8.85576373      0.00854121972        -8.85576373        0.931352908         173.929285
    1.06944444e+10       0.930779201         173.496729      0.00848336226         -8.8264207      0.00848336226         -8.8264207        0.930772663         173.494824
    1.14583333e+10       0.930238271         173.063759      0.00843395412        -8.79879338      0.00843395412        -8.79879338        0.930231967          173.06185
    1.22222222e+10       0.929738039         172.631454      0.00839157346        -8.77725672      0.00839157346        -8.77725672         0.92973197         172.629541
    1.52777778e+10       0.928008559         170.904504      0.00827264256        -8.78460181      0.00827264256        -8.78460181        0.927995135         170.901871
    1.83333333e+10       0.926597632         169.175265      0.00820512896        -8.95570966      0.00820512896        -8.95570966        0.926579437         169.171272
    2.13888889e+10       0.925366903         167.439494      0.00816615457        -9.27027004      0.00816615457        -9.27027004        0.925352847         167.434859
    2.44444444e+10       0.924238085         165.697178      0.00814433255        -9.70404291      0.00814433255        -9.70404291        0.924219092          165.69176
    2.59722222e+10       0.923695568          164.82333      0.00813780832        -9.95842527      0.00813780832        -9.95842527         0.92366826         164.817729
          2.75e+10       0.923152497         163.948037       0.0081334438        -10.2357271       0.0081334438        -10.2357271        0.923126572         163.942408
    2.90277778e+10       0.922619202         163.071273      0.00813093595        -10.5340765      0.00813093595        -10.5340765        0.922585101         163.065435
    3.05555556e+10       0.922077421         162.192478      0.00812997992        -10.8516158      0.00812997992        -10.8516158        0.922044766         162.186604
    3.20833333e+10       0.921544103         161.312406       0.0081302089        -11.1880326       0.0081302089        -11.1880326        0.921503432           161.3063
    3.36111111e+10       0.920997693         160.431042      0.00813164991        -11.5424965      0.00813164991        -11.5424965        0.920961887         160.424308
    3.51388889e+10       0.920451716         159.547773      0.00813393842        -11.9147424      0.00813393842        -11.9147424        0.920404719         159.541367
    3.66666667e+10       0.919890687         158.663322      0.00813688572        -12.3035753      0.00813688572        -12.3035753        0.919848923         158.656287
    3.89583333e+10       0.919048005         157.332851      0.00814269462         -12.918354      0.00814269462         -12.918354        0.919005021         157.326326
         4.125e+10       0.918194999          155.99956      0.00814958528        -13.5724375      0.00814958528        -13.5724375         0.91814026         155.991891
    4.35416667e+10       0.917320076         154.661578       0.0081572172        -14.2650315       0.0081572172        -14.2650315         0.91726394         154.654389
    4.58333333e+10       0.916422999         153.320032       0.0081654573        -14.9979961       0.0081654573        -14.9979961        0.916365131         153.311916
        4.8125e+10       0.915520299         151.973824      0.00817397957        -15.7729522      0.00817397957        -15.7729522         0.91545667         151.965323
    5.04166667e+10       0.914597647         150.622966      0.00818257059        -16.5936781      0.00818257059        -16.5936781        0.914537238         150.614364
    5.27083333e+10       0.913667833         149.266931      0.00819087858          -17.46227      0.00819087858          -17.46227        0.913596984         149.258452
           5.5e+10       0.912724987         147.905984      0.00819858765        -18.3832359      0.00819858765        -18.3832359        0.912648898          147.89706
    5.72916667e+10       0.911765222         146.538948      0.00820559922        -19.3601693      0.00820559922        -19.3601693        0.911692547         146.529902
    5.95833333e+10       0.910810753         145.165677      0.00821141488        -20.4002256      0.00821141488        -20.4002256         0.91071942         145.156312
        6.1875e+10       0.909833647         143.786179      0.00821584451        -21.5088666      0.00821584451        -21.5088666        0.909745925         143.776669
    6.41666667e+10       0.908860004         142.398929      0.00821849922        -22.6941925      0.00821849922        -22.6941925        0.908761939         142.389392
    6.64583333e+10        0.90787864         141.004591      0.00821899368        -23.9644001      0.00821899368        -23.9644001         0.90777022          140.99499
         6.875e+10       0.906882424         139.602368      0.00821681803        -25.3306869      0.00821681803        -25.3306869        0.906784242          139.59211
    7.10416667e+10        0.90588594          138.19087      0.00821153954        -26.8047001      0.00821153954        -26.8047001         0.90578512         138.180922
    7.33333333e+10       0.904899169         136.770123      0.00820280686        -28.4027512      0.00820280686        -28.4027512        0.904788144         136.760036
    7.48611111e+10       0.904234175         135.817719      0.00819472741        -29.5443786      0.00819472741        -29.5443786        0.904118842         135.807964
    7.63888889e+10       0.903564934         134.860553      0.00818477299        -30.7547421      0.00818477299        -30.7547421         0.90345219          134.85067
    7.79166667e+10       0.902901702         133.898794      0.00817278665        -32.0412015      0.00817278665        -32.0412015         0.90277745         133.888768
    7.94444444e+10       0.902226722         132.931689       0.0081586277        -33.4103691       0.0081586277        -33.4103691        0.902105154         132.921523
    8.09722222e+10       0.901550496         131.959389      0.00814215101         -34.871707      0.00814215101         -34.871707        0.901431662         131.949086
          8.25e+10       0.900883278         130.982086      0.00812339371        -36.4352764      0.00812339371        -36.4352764         0.90076067         130.971168
    8.40277778e+10       0.900209336         129.998055      0.00810230527        -38.1124647      0.00810230527        -38.1124647        0.900080797         129.988302
    8.55555556e+10         0.8995307         129.008769      0.00807893737        -39.9163517      0.00807893737        -39.9163517        0.899404826         128.998869
    8.70833333e+10        0.89884501          128.01341      0.00805342508        -41.8633113      0.00805342508        -41.8633113        0.898721854         128.003364
    8.86111111e+10       0.898164734         127.011261      0.00802618178        -43.9696968      0.00802618178        -43.9696968        0.898036367         127.001456
    9.01388889e+10       0.897478778         126.002779      0.00799767259        -46.2559007      0.00799767259        -46.2559007        0.897339169         125.992682
    9.16666667e+10       0.896786152           124.9871      0.00796871122        -48.7446099      0.00796871122        -48.7446099        0.896649368         124.976839
    9.31944444e+10        0.89608405         123.964233      0.00794042313         -51.462461      0.00794042313         -51.462461         0.89594186         123.954167
    9.47222222e+10       0.895377978         122.933812      0.00791448858        -54.4401051      0.00791448858        -54.4401051        0.895235684          122.92446
         9.625e+10       0.894656796         121.896157      0.00789329777        -57.7094648      0.00789329777        -57.7094648        0.894520381         121.885752
    9.77777778e+10       0.893938148          120.84966      0.00788014219         -61.308533      0.00788014219         -61.308533        0.893792676         120.840296
    9.93055556e+10       0.893194314         119.795246      0.00787941451          -65.27717      0.00787941451          -65.27717        0.893051556         119.785704
    1.00833333e+11       0.892449094         118.731842      0.00789748784        -69.6568312      0.00789748784        -69.6568312        0.892300351         118.722433
    1.02361111e+11        0.89167847         117.659392      0.00794230507        -74.4879371      0.00794230507        -74.4879371        0.891537137         117.650367
    1.03888889e+11       0.890894226         116.577994      0.00802482423        -79.8041634      0.00802482423        -79.8041634        0.890755569         116.568791
    1.04652778e+11       0.890498799         116.033007      0.00808448371        -82.6524955      0.00808448371        -82.6524955        0.890356911         116.024576
    1.05416667e+11       0.890095001         115.486039      0.00815922229        -85.6298447      0.00815922229        -85.6298447        0.889949644         115.478375
    1.06180556e+11       0.889683618          114.93702      0.00825120769        -88.7360334      0.00825120769        -88.7360334        0.889535194          114.92868
    1.06944444e+11       0.889270446         114.385033      0.00836323966        -91.9693385      0.00836323966        -91.9693385        0.889127404         114.377184
    1.07708333e+11       0.888847568          113.83028      0.00849829153        -95.3261218      0.00849829153        -95.3261218        0.888709751         113.822928
    1.08472222e+11        0.88842008          113.27328      0.00865945531        -98.8008435      0.00865945531        -98.8008435        0.888274191         113.266093
    1.09236111e+11       0.887985029         112.713374      0.00885028053        -102.385631      0.00885028053        -102.385631        0.887840236         112.706092
           1.1e+11       0.887547398          112.15109      0.00907470595        -106.070109      0.00907470595        -106.070109         0.88740372         112.143713
